   0.002149 1  CF00400x        Rx   d 8 F6 8D 8D 2F 1A 03 FF 8D  Length = 0 BitCount = 0 ID = 217056256x
   0.002749 1  10FE6F00x       Rx   d 8 FF FF FF FF FF FF FF FF  Length = 0 BitCount = 0 ID = 285110016x
   0.003341 1  18FEF000x       Rx   d 8 FF FF FF 00 00 F4 00 FF  Length = 0 BitCount = 0 ID = 419360768x
   0.006345 1  CF00203x        Rx   d 8 DC 48 02 FF F0 10 1A FF  Length = 0 BitCount = 0 ID = 217055747x
   0.006965 1  C000003x        Rx   d 8 C3 80 1B FA FF FF FF FF  Length = 0 BitCount = 0 ID = 201326595x
   0.007966 1  14FF2321x       Rx   d 8 F0 0C FF FF FF FF FF FF  Length = 0 BitCount = 0 ID = 352264993x
   0.008642 1  18FEBF0Bx       Rx   d 8 1B 04 7D 7C 7A 7B FF FF  Length = 0 BitCount = 0 ID = 419348235x
   0.012262 1  CF00400x        Rx   d 8 F6 8D 8D 33 1A 03 FF 8D  Length = 0 BitCount = 0 ID = 217056256x
   0.012842 1  CF00300x        Rx   d 8 DC 34 16 FF FF FF B4 FF  Length = 0 BitCount = 0 ID = 217056000x
   0.013422 1  18FEE000x       Rx   d 8 17 05 7B 00 17 05 7B 00  Length = 0 BitCount = 0 ID = 419356672x
   0.016406 1  CF00203x        Rx   d 8 DC 48 02 FF F0 08 1A FF  Length = 0 BitCount = 0 ID = 217055747x
   0.017010 1  C000003x        Rx   d 8 C3 80 1B FA FF FF FF FF  Length = 0 BitCount = 0 ID = 201326595x
   0.022190 1  CF00400x        Rx   d 8 F6 8D 8D 3B 1A 03 FF 8D  Length = 0 BitCount = 0 ID = 217056256x
   0.022778 1  18FDB300x       Rx   d 8 FF FF C0 36 FF FF FF FF  Length = 0 BitCount = 0 ID = 419279616x
   0.026318 1  C000F03x        Rx   d 8 C2 FF FF 7D FF FF FF FF  Length = 0 BitCount = 0 ID = 201330435x
   0.026906 1  CF00203x        Rx   d 8 DC 50 02 FF F0 18 1A FF  Length = 0 BitCount = 0 ID = 217055747x
   0.027510 1  C000003x        Rx   d 8 C3 80 1B FA FF FF FF FF  Length = 0 BitCount = 0 ID = 201326595x
   0.032378 1  CF00400x        Rx   d 8 F6 8D 8D 49 1A 03 FF 8D  Length = 0 BitCount = 0 ID = 217056256x
   0.032962 1  18FEEF00x       Rx   d 8 0D FF FF 44 FF FF FF FA  Length = 0 BitCount = 0 ID = 419360512x
   0.036338 1  CF00203x        Rx   d 8 DC 50 02 FF F0 30 1A FF  Length = 0 BitCount = 0 ID = 217055747x
   0.036954 1  C000003x        Rx   d 8 C3 80 1B FA FF FF FF FF  Length = 0 BitCount = 0 ID = 201326595x
   0.042198 1  CF00400x        Rx   d 8 F6 8D 8D 57 1A 03 FF 8D  Length = 0 BitCount = 0 ID = 217056256x
   0.042778 1  C00000Bx        Rx   d 8 FC FF FA FA FF FF FF FF  Length = 0 BitCount = 0 ID = 201326603x
   0.043366 1  18FEDB00x       Rx   d 8 FF FF FF FF FF FF FF FF  Length = 0 BitCount = 0 ID = 419355392x
   0.045306 1  14FF3131x       Rx   d 8 00 30 03 00 00 FF FF F0  Length = 0 BitCount = 0 ID = 352268593x
   0.046314 1  CF00203x        Rx   d 8 DD 50 02 FF F0 40 1A FF  Length = 0 BitCount = 0 ID = 217055747x
   0.046926 1  C000003x        Rx   d 8 C3 80 1B FA FF FF FF FF  Length = 0 BitCount = 0 ID = 201326595x
   0.047703 1  18F0010Bx       Rx   d 8 C0 FF F0 FF FF 0D FF 3F  Length = 0 BitCount = 0 ID = 418382091x
   0.048259 1  10FF2121x       Rx   d 8 72 55 15 C0 FF FF FF FA  Length = 0 BitCount = 0 ID = 285155617x
   0.050923 1  18F00503x       Rx   d 8 7C DE 2B 7C 20 52 52 31  Length = 0 BitCount = 0 ID = 418383107x
   0.051527 1  18FE4A03x       Rx   d 8 FF FF FF FF FF F3 FF FF  Length = 0 BitCount = 0 ID = 419318275x
   0.052139 1  18FED9EFx       Rx   d 8 00 FF FF FF FF FF FF FF  Length = 0 BitCount = 0 ID = 419355119x
   0.052687 1  CF00400x        Rx   d 8 F6 8D 8D 57 1A 03 FF 8D  Length = 0 BitCount = 0 ID = 217056256x
   0.053271 1  18FEF100x       Rx   d 8 C3 1C 04 C0 00 00 00 30  Length = 0 BitCount = 0 ID = 419361024x
   0.056531 1  CF00203x        Rx   d 8 DD 50 02 FF F0 50 1A FF  Length = 0 BitCount = 0 ID = 217055747x
   0.057151 1  C000003x        Rx   d 8 C3 80 1B FA FF FF FF FF  Length = 0 BitCount = 0 ID = 201326595x
   0.058635 1  18FEBF0Bx       Rx   d 8 1B 04 7D 7C 7B 7B FF FF  Length = 0 BitCount = 0 ID = 419348235x
   0.059387 1  14FEF131x       Rx   d 8 CF FF FF F3 00 FF FF 3F  Length = 0 BitCount = 0 ID = 352252209x
   0.061999 1  CF00400x        Rx   d 8 F6 8D 8D 52 1A 03 FF 8D  Length = 0 BitCount = 0 ID = 217056256x
   0.062579 1  CF00300x        Rx   d 8 DC 34 15 FF FF FF B4 FF  Length = 0 BitCount = 0 ID = 217056000x
   0.066387 1  CF00203x        Rx   d 8 DD 50 02 FF F0 28 1A FF  Length = 0 BitCount = 0 ID = 217055747x
   0.066991 1  C000003x        Rx   d 8 C3 80 1B FA FF FF FF FF  Length = 0 BitCount = 0 ID = 201326595x
   0.069319 1  14FEF121x       Rx   d 8 F3 FF FF CF FF FF FF FF  Length = 0 BitCount = 0 ID = 352252193x
   0.072107 1  CF00400x        Rx   d 8 F6 8D 8D 4F 1A 03 FF 8D  Length = 0 BitCount = 0 ID = 217056256x
   0.072699 1  18FEDF00x       Rx   d 8 83 00 13 FF 7E FF FF FF  Length = 0 BitCount = 0 ID = 419356416x
   0.073287 1  18F0000Fx       Rx   d 8 06 7D FF FF 03 FF FF FF  Length = 0 BitCount = 0 ID = 418381839x
   0.076416 1  C000F03x        Rx   d 8 C2 FF FF 7D FF FF FF FF  Length = 0 BitCount = 0 ID = 201330435x
   0.077012 1  CF00203x        Rx   d 8 DC 50 02 FF F0 48 1A FF  Length = 0 BitCount = 0 ID = 217055747x
   0.077620 1  C000003x        Rx   d 8 C3 80 1B FA FF FF FF FF  Length = 0 BitCount = 0 ID = 201326595x
   0.079316 1  14F00131x       Rx   d 8 FF FF FF FF 00 FF FF FF  Length = 0 BitCount = 0 ID = 351273265x
   0.082420 1  CF00400x        Rx   d 8 F6 8D 8D 52 1A 03 FF 8D  Length = 0 BitCount = 0 ID = 217056256x
   0.083004 1  18FEF200x       Rx   d 8 78 00 57 01 36 05 FF FF  Length = 0 BitCount = 0 ID = 419361280x
   0.086352 1  CF00203x        Rx   d 8 DD 50 02 FF F0 30 1A FF  Length = 0 BitCount = 0 ID = 217055747x
   0.086968 1  C000003x        Rx   d 8 C3 80 1B FA FF FF FF FF  Length = 0 BitCount = 0 ID = 201326595x
   0.089304 1  14F00031x       Rx   d 8 CF FF FF FF FF FF FF FF  Length = 0 BitCount = 0 ID = 351273009x
   0.091440 1  18FECA00x       Rx   d 8 03 FF 00 00 00 00 FF FF  Length = 0 BitCount = 0 ID = 419351040x
   0.092508 1  CF00400x        Rx   d 8 F6 8D 8D 4F 1A 03 FF 8D  Length = 0 BitCount = 0 ID = 217056256x
   0.096317 1  CF00203x        Rx   d 8 DC 50 02 FF F0 48 1A FF  Length = 0 BitCount = 0 ID = 217055747x
   0.096921 1  C000003x        Rx   d 8 C3 80 1B FA FF FF FF FF  Length = 0 BitCount = 0 ID = 201326595x
   0.097665 1  10FF2121x       Rx   d 8 72 55 15 C0 FF FF FF FA  Length = 0 BitCount = 0 ID = 285155617x
   0.099273 1  18FF3331x       Rx   d 8 FF FF FF FF FF FF 03 FF  Length = 0 BitCount = 0 ID = 419377969x
   0.102161 1  CF00400x        Rx   d 8 F6 8D 8D 4F 1A 03 FF 8D  Length = 0 BitCount = 0 ID = 217056256x
   0.102761 1  10FE6F00x       Rx   d 8 FF FF FF FF FF FF FF FF  Length = 0 BitCount = 0 ID = 285110016x
   0.103353 1  18FEF000x       Rx   d 8 FF FF FF 00 00 F4 00 FF  Length = 0 BitCount = 0 ID = 419360768x
   0.106265 1  CF00203x        Rx   d 8 DC 50 02 FF F0 48 1A FF  Length = 0 BitCount = 0 ID = 217055747x
   0.106877 1  C000003x        Rx   d 8 C3 80 1B FA FF FF FF FF  Length = 0 BitCount = 0 ID = 201326595x
   0.107961 1  14FF2321x       Rx   d 8 F0 0C FF FF FF FF FF FF  Length = 0 BitCount = 0 ID = 352264993x
   0.108649 1  18FEBF0Bx       Rx   d 8 20 04 7E 7C 7C 7B FF FF  Length = 0 BitCount = 0 ID = 419348235x
   0.109409 1  18FEFC47x       Rx   d 8 FF FF FF FF FF FF FF FF  Length = 0 BitCount = 0 ID = 419363911x
   0.112329 1  CF00400x        Rx   d 8 F6 8D 8D 45 1A 03 FF 8D  Length = 0 BitCount = 0 ID = 217056256x
   0.112909 1  CF00300x        Rx   d 8 DC 34 15 FF FF FF B4 FF  Length = 0 BitCount = 0 ID = 217056000x
   0.113489 1  18FEE000x       Rx   d 8 17 05 7B 00 17 05 7B 00  Length = 0 BitCount = 0 ID = 419356672x
   0.116321 1  CF00203x        Rx   d 8 DC 50 02 FF F0 28 1A FF  Length = 0 BitCount = 0 ID = 217055747x
   0.116937 1  C000003x        Rx   d 8 C3 80 1B FA FF FF FF FF  Length = 0 BitCount = 0 ID = 201326595x
   0.119317 1  18FEF847x       Rx   d 8 FF FF FF FF FF FF FF FF  Length = 0 BitCount = 0 ID = 419362887x
   0.122193 1  CF00400x        Rx   d 8 F6 8D 8D 45 1A 03 FF 8D  Length = 0 BitCount = 0 ID = 217056256x
   0.122761 1  18FEF600x       Rx   d 8 FF 35 61 35 FF 40 2F FF  Length = 0 BitCount = 0 ID = 419362304x
   0.126229 1  C000F03x        Rx   d 8 C2 FF FF 7D FF FF FF FF  Length = 0 BitCount = 0 ID = 201330435x
   0.126825 1  CF00203x        Rx   d 8 DC 50 02 FF F0 48 1A FF  Length = 0 BitCount = 0 ID = 217055747x
   0.127429 1  C000003x        Rx   d 8 C3 80 1B FA FF FF FF FF  Length = 0 BitCount = 0 ID = 201326595x
   0.129301 1  18FEF721x       Rx   d 8 FF FF FF FF 19 01 FF FF  Length = 0 BitCount = 0 ID = 419362593x
   0.132401 1  CF00400x        Rx   d 8 F6 8D 8D 4E 1A 03 FF 8D  Length = 0 BitCount = 0 ID = 217056256x
   0.133001 1  18FDD000x       Rx   d 8 FF FF FF FF 05 FF FF FF  Length = 0 BitCount = 0 ID = 419287040x
   0.136245 1  CF00203x        Rx   d 8 DC 50 02 FF F0 38 1A FF  Length = 0 BitCount = 0 ID = 217055747x
   0.136861 1  C000003x        Rx   d 8 C3 80 1B FA FF FF FF FF  Length = 0 BitCount = 0 ID = 201326595x
   0.139321 1  18FEF621x       Rx   d 8 FF FF FF FF FF FF FF FF  Length = 0 BitCount = 0 ID = 419362337x
   0.142257 1  C00000Bx        Rx   d 8 FC FF FA FA FF FF FF FF  Length = 0 BitCount = 0 ID = 201326603x
   0.142805 1  CF00400x        Rx   d 8 F6 8D 8D 5D 1A 03 FF 8D  Length = 0 BitCount = 0 ID = 217056256x
   0.143377 1  18FEC100x       Rx   d 8 42 7F 03 0C 42 7F 03 0C  Length = 0 BitCount = 0 ID = 419348736x
   0.145301 1  14FF3131x       Rx   d 8 00 30 03 00 00 FF FF F0  Length = 0 BitCount = 0 ID = 352268593x
   0.146225 1  CF00203x        Rx   d 8 DD 50 02 FF F0 58 1A FF  Length = 0 BitCount = 0 ID = 217055747x
   0.146837 1  C000003x        Rx   d 8 C3 80 1B FA FF FF FF FF  Length = 0 BitCount = 0 ID = 201326595x
   0.147709 1  18F0010Bx       Rx   d 8 C0 FF F0 FF FF 0D FF 3F  Length = 0 BitCount = 0 ID = 418382091x
   0.148265 1  10FF2121x       Rx   d 8 72 55 15 C0 FF FF FF FA  Length = 0 BitCount = 0 ID = 285155617x
   0.149414 1  18FEF521x       Rx   d 8 FF FF FF A0 25 FF FF FF  Length = 0 BitCount = 0 ID = 419362081x
   0.150617 1  18FECA03x       Rx   d 8 00 FF 00 00 00 00 FF FF  Length = 0 BitCount = 0 ID = 419351043x
   0.151206 1  18F00503x       Rx   d 8 7C DE 2B 7C 20 52 00 C0  Length = 0 BitCount = 0 ID = 418383107x
   0.151814 1  18FE4A03x       Rx   d 8 FF FF FF FF FF F3 FF FF  Length = 0 BitCount = 0 ID = 419318275x
   0.152426 1  18FED9EFx       Rx   d 8 00 FF FF FF FF FF FF FF  Length = 0 BitCount = 0 ID = 419355119x
   0.152973 1  CF00400x        Rx   d 8 F6 8D 8D 5D 1A 03 FF 8D  Length = 0 BitCount = 0 ID = 217056256x
   0.153550 1  C000F0Bx        Rx   d 8 FC FF FA 00 FF FF FF FF  Length = 0 BitCount = 0 ID = 201330443x
   0.154121 1  18FEF100x       Rx   d 8 C3 1C 04 C0 00 00 00 30  Length = 0 BitCount = 0 ID = 419361024x
   0.156462 1  CF00203x        Rx   d 8 DD 50 02 FF F0 50 1A FF  Length = 0 BitCount = 0 ID = 217055747x
   0.157066 1  C000003x        Rx   d 8 C3 80 1B FA FF FF FF FF  Length = 0 BitCount = 0 ID = 201326595x
   0.158654 1  18FEBF0Bx       Rx   d 8 28 04 7D 7C 7B 7A FF FF  Length = 0 BitCount = 0 ID = 419348235x
   0.159398 1  14FEF131x       Rx   d 8 CF FF FF F3 00 FF FF 3F  Length = 0 BitCount = 0 ID = 352252209x
   0.162030 1  CF00400x        Rx   d 8 F6 8C 8D 73 1A 03 FF 8D  Length = 0 BitCount = 0 ID = 217056256x
   0.162602 1  CF00300x        Rx   d 8 DC 33 15 FF FF FF B4 FF  Length = 0 BitCount = 0 ID = 217056000x
   0.166298 1  CF00203x        Rx   d 8 DD 50 02 FF F0 68 1A FF  Length = 0 BitCount = 0 ID = 217055747x
   0.166914 1  C000003x        Rx   d 8 C3 80 1B FA FF FF FF FF  Length = 0 BitCount = 0 ID = 201326595x
   0.169282 1  14FEF121x       Rx   d 8 F3 FF FF CF FF FF FF FF  Length = 0 BitCount = 0 ID = 352252193x
   0.169858 1  C00100Bx        Rx   d 8 FC FF FA 00 FF FF FF FF  Length = 0 BitCount = 0 ID = 201330699x
   0.172378 1  CF00400x        Rx   d 8 F6 8C 8D 77 1A 03 FF 8D  Length = 0 BitCount = 0 ID = 217056256x
   0.172970 1  18FEDF00x       Rx   d 8 83 00 13 FF 7E FF FF FF  Length = 0 BitCount = 0 ID = 419356416x
   0.173558 1  18F0000Fx       Rx   d 8 06 7D FF FF 03 FF FF FF  Length = 0 BitCount = 0 ID = 418381839x
   0.176326 1  C000F03x        Rx   d 8 C2 FF FF 7D FF FF FF FF  Length = 0 BitCount = 0 ID = 201330435x
   0.176906 1  CF00203x        Rx   d 8 DD 58 02 FF F0 88 1A FF  Length = 0 BitCount = 0 ID = 217055747x
   0.177514 1  C000003x        Rx   d 8 C3 80 1B FA FF FF FF FF  Length = 0 BitCount = 0 ID = 201326595x
   0.179350 1  14F00131x       Rx   d 8 FF FF FF FF 00 FF FF FF  Length = 0 BitCount = 0 ID = 351273265x
   0.180522 1  C00290Bx        Rx   d 8 FC FF FA 00 FF FF FF FF  Length = 0 BitCount = 0 ID = 201337099x
   0.182442 1  CF00400x        Rx   d 8 F6 8C 8C 7D 1A 03 FF 8D  Length = 0 BitCount = 0 ID = 217056256x
   0.183026 1  18FEF200x       Rx   d 8 78 00 57 01 36 05 FF FF  Length = 0 BitCount = 0 ID = 419361280x
   0.186254 1  CF00203x        Rx   d 8 DD 58 02 FF F0 68 1A FF  Length = 0 BitCount = 0 ID = 217055747x
   0.186875 1  C000003x        Rx   d 8 C3 80 1B FA FF FF FF FF  Length = 0 BitCount = 0 ID = 201326595x
   0.189287 1  14F00031x       Rx   d 8 CF FF FF FF FF FF FF FF  Length = 0 BitCount = 0 ID = 351273009x
   0.192806 1  CF00400x        Rx   d 8 F6 8C 8C 81 1A 03 FF 8D  Length = 0 BitCount = 0 ID = 217056256x
   0.196211 1  CF00203x        Rx   d 8 DD 58 02 FF F0 90 1A FF  Length = 0 BitCount = 0 ID = 217055747x
   0.196831 1  C000003x        Rx   d 8 C3 80 1B FA FF FF FF FF  Length = 0 BitCount = 0 ID = 201326595x
   0.197687 1  10FF2121x       Rx   d 8 72 55 15 C0 FF FF FF FA  Length = 0 BitCount = 0 ID = 285155617x
   0.199307 1  18E00031x       Rx   d 8 FF FF FF FF FF FF FF FF  Length = 0 BitCount = 0 ID = 417333297x
   0.201179 1  18FEF703x       Rx   d 8 FF 00 FF FF 19 01 14 01  Length = 0 BitCount = 0 ID = 419362563x
   0.202251 1  CF00400x        Rx   d 8 F6 8C 8C 81 1A 03 FF 8D  Length = 0 BitCount = 0 ID = 217056256x
   0.202851 1  10FE6F00x       Rx   d 8 FF FF FF FF FF FF FF FF  Length = 0 BitCount = 0 ID = 285110016x
   0.203443 1  18FEF000x       Rx   d 8 FF FF FF 00 00 F4 00 FF  Length = 0 BitCount = 0 ID = 419360768x
   0.206191 1  CF00203x        Rx   d 8 DD 58 02 FF F0 78 1A FF  Length = 0 BitCount = 0 ID = 217055747x
   0.206807 1  C000003x        Rx   d 8 C3 80 1B FA FF FF FF FF  Length = 0 BitCount = 0 ID = 201326595x
   0.207859 1  14FF2321x       Rx   d 8 F0 0C FF FF FF FF FF FF  Length = 0 BitCount = 0 ID = 352264993x
   0.208647 1  18FEBF0Bx       Rx   d 8 26 04 7E 7B 7C 7A FF FF  Length = 0 BitCount = 0 ID = 419348235x
   0.209097 1 J1587  14 Rx    80 55 00 79 00 B7 66 00 B8 93 01 41 FC 44 C8 53 7F 5E 0F C1
   0.212415 1  CF00400x        Rx   d 8 F6 8C 8C 84 1A 03 FF 8D  Length = 0 BitCount = 0 ID = 217056256x
   0.212987 1  CF00300x        Rx   d 8 DC 33 15 FF FF FF B4 FF  Length = 0 BitCount = 0 ID = 217056000x
   0.213567 1  18FEE000x       Rx   d 8 17 05 7B 00 17 05 7B 00  Length = 0 BitCount = 0 ID = 419356672x
   0.216235 1  CF00203x        Rx   d 8 DD 58 02 FF F0 78 1A FF  Length = 0 BitCount = 0 ID = 217055747x
   0.216855 1  C000003x        Rx   d 8 C3 80 1B FA FF FF FF FF  Length = 0 BitCount = 0 ID = 201326595x
   0.222283 1  CF00400x        Rx   d 8 F6 8C 8C 88 1A 03 FF 8D  Length = 0 BitCount = 0 ID = 217056256x
   0.222875 1  18FEF700x       Rx   d 8 FF FF FF FF 19 01 18 01  Length = 0 BitCount = 0 ID = 419362560x
   0.226131 1  C000F03x        Rx   d 8 C2 FF FF 7D FF FF FF FF  Length = 0 BitCount = 0 ID = 201330435x
   0.226719 1  CF00203x        Rx   d 8 DD 58 02 FF F0 78 1A FF  Length = 0 BitCount = 0 ID = 217055747x
   0.227327 1  C000003x        Rx   d 8 C3 80 1B FA FF FF FF FF  Length = 0 BitCount = 0 ID = 201326595x
   0.232459 1  CF00400x        Rx   d 8 F6 8C 8C 89 1A 03 FF 8D  Length = 0 BitCount = 0 ID = 217056256x
   0.234471 1 J1587  14 Rx    82 E2 07 90 28 02 12 20 52 31 BF 2D 01 A8 19 01 A3 20 4E 66
   0.236147 1  CF00203x        Rx   d 8 DD 58 02 FF F0 78 1A FF  Length = 0 BitCount = 0 ID = 217055747x
   0.236751 1  C000003x        Rx   d 8 C3 80 1B FA FF FF FF FF  Length = 0 BitCount = 0 ID = 201326595x
   0.242271 1  C00000Bx        Rx   d 8 FC FF FA FA FF FF FF FF  Length = 0 BitCount = 0 ID = 201326603x
   0.242823 1  CF00400x        Rx   d 8 F6 8C 8C 85 1A 03 FF 8D  Length = 0 BitCount = 0 ID = 217056256x
   0.245323 1  14FF3131x       Rx   d 8 00 30 03 00 00 FF FF F0  Length = 0 BitCount = 0 ID = 352268593x
   0.246119 1  CF00203x        Rx   d 8 DD 58 02 FF F0 88 1A FF  Length = 0 BitCount = 0 ID = 217055747x
   0.246739 1  C000003x        Rx   d 8 C3 80 1B FA FF FF FF FF  Length = 0 BitCount = 0 ID = 201326595x
   0.246875 1 J1587   9 Rx    8C 46 00 41 F3 A8 19 01 38
   0.247724 1  18F0010Bx       Rx   d 8 C0 FF F0 FF FF 0D FF 3F  Length = 0 BitCount = 0 ID = 418382091x
   0.248280 1  10FF2121x       Rx   d 8 72 55 15 C0 FF FF FF FA  Length = 0 BitCount = 0 ID = 285155617x
   0.249368 1  18F00503x       Rx   d 8 7C DE 2B 7C 20 52 52 31  Length = 0 BitCount = 0 ID = 418383107x
   0.249972 1  18FE4A03x       Rx   d 8 FF FF FF FF FF F3 FF FF  Length = 0 BitCount = 0 ID = 419318275x
   0.250584 1  18FED9EFx       Rx   d 8 00 FF FF FF FF FF FF FF  Length = 0 BitCount = 0 ID = 419355119x
   0.252395 1  CF00400x        Rx   d 8 F6 8C 8C 88 1A 03 FF 8C  Length = 0 BitCount = 0 ID = 217056256x
   0.252971 1  18FEF100x       Rx   d 8 C3 2A 04 C0 00 00 00 30  Length = 0 BitCount = 0 ID = 419361024x
   0.256356 1  CF00203x        Rx   d 8 DD 58 02 FF F0 78 1A FF  Length = 0 BitCount = 0 ID = 217055747x
   0.256960 1  C000003x        Rx   d 8 C3 80 1B FA FF FF FF FF  Length = 0 BitCount = 0 ID = 201326595x
   0.258648 1  18FEBF0Bx       Rx   d 8 2E 04 7E 7B 7B 79 FF FF  Length = 0 BitCount = 0 ID = 419348235x
   0.259448 1  14FEF131x       Rx   d 8 CF FF FF F3 00 FF FF 3F  Length = 0 BitCount = 0 ID = 352252209x
   0.262168 1  CF00400x        Rx   d 8 F6 8C 8C 88 1A 03 FF 8C  Length = 0 BitCount = 0 ID = 217056256x
   0.262740 1  CF00300x        Rx   d 8 DC 33 15 FF FF FF B4 FF  Length = 0 BitCount = 0 ID = 217056000x
   0.265323 1 J1587e15   f Rx    80 54 05 BE 44 0D 29 C0 5B 33 5C 2A 2B C7 29
   0.266196 1  CF00203x        Rx   d 8 DD 58 02 FF F0 98 1A FF  Length = 0 BitCount = 0 ID = 217055747x
   0.266800 1  C000003x        Rx   d 8 C3 80 1B FA FF FF FF FF  Length = 0 BitCount = 0 ID = 201326595x
   0.269356 1  14FEF121x       Rx   d 8 F3 FF FF CF FF FF FF FF  Length = 0 BitCount = 0 ID = 352252193x
   0.271705 1 J1587   5 Rx    82 A2 20 52 6A
   0.272460 1  CF00400x        Rx   d 8 F6 8C 8C 89 1A 03 FF 8C  Length = 0 BitCount = 0 ID = 217056256x
   0.273052 1  18FEDF00x       Rx   d 8 83 00 13 FF 7E FF FF FF  Length = 0 BitCount = 0 ID = 419356416x
   0.273652 1  18F0000Fx       Rx   d 8 06 7D FF FF 03 FF FF FF  Length = 0 BitCount = 0 ID = 418381839x
   0.276236 1  C000F03x        Rx   d 8 C2 FF FF 7D FF FF FF FF  Length = 0 BitCount = 0 ID = 201330435x
   0.276820 1  CF00203x        Rx   d 8 DD 58 02 FF F0 80 1A FF  Length = 0 BitCount = 0 ID = 217055747x
   0.277424 1  C000003x        Rx   d 8 C3 80 1B FA FF FF FF FF  Length = 0 BitCount = 0 ID = 201326595x
   0.279308 1  14F00131x       Rx   d 8 FF FF FF FF 00 FF FF FF  Length = 0 BitCount = 0 ID = 351273265x
   0.282448 1  CF00400x        Rx   d 8 F6 8C 8C 92 1A 03 FF 8C  Length = 0 BitCount = 0 ID = 217056256x
   0.283024 1  18FEF200x       Rx   d 8 78 00 59 01 36 05 FF FF  Length = 0 BitCount = 0 ID = 419361280x
   0.285077 1 J1587   a Rx    89 FE AC 0F 80 CE 07 70 00 F9
   0.286168 1  CF00203x        Rx   d 8 DD 58 02 FF F0 80 1A FF  Length = 0 BitCount = 0 ID = 217055747x
   0.286788 1  C000003x        Rx   d 8 C3 80 1B FA FF FF FF FF  Length = 0 BitCount = 0 ID = 201326595x
   0.289320 1  14F00031x       Rx   d 8 CF FF FF FF FF FF FF FF  Length = 0 BitCount = 0 ID = 351273009x
   0.292548 1  CF00400x        Rx   d 8 F6 8C 8C 9D 1A 03 FF 8C  Length = 0 BitCount = 0 ID = 217056256x
   0.292644 1 J1587   6 Rx    F9 41 F3 46 00 8D
   0.296120 1  CF00203x        Rx   d 8 DD 58 02 FF F0 98 1A FF  Length = 0 BitCount = 0 ID = 217055747x
   0.296724 1  C000003x        Rx   d 8 C3 80 1B FA FF FF FF FF  Length = 0 BitCount = 0 ID = 201326595x
   0.297725 1  10FF2121x       Rx   d 8 72 55 15 C0 FF FF FF FA  Length = 0 BitCount = 0 ID = 285155617x
   0.302637 1  CF00400x        Rx   d 8 F6 8C 8C AC 1A 03 FF 8C  Length = 0 BitCount = 0 ID = 217056256x
   0.303237 1  10FE6F00x       Rx   d 8 FF FF FF FF FF FF FF FF  Length = 0 BitCount = 0 ID = 285110016x
   0.303829 1  18FEF000x       Rx   d 8 FF FF FF 00 00 F4 00 FF  Length = 0 BitCount = 0 ID = 419360768x
   0.304841 1  18EAFFFBx       Rx   d 3 C3 FE 00  Length = 0 BitCount = 0 ID = 418054139x
   0.306117 1  CF00203x        Rx   d 8 DD 58 02 FF F0 98 1A FF  Length = 0 BitCount = 0 ID = 217055747x
   0.306721 1  C000003x        Rx   d 8 C3 80 1B FA FF FF FF FF  Length = 0 BitCount = 0 ID = 201326595x
   0.307821 1  14FF2321x       Rx   d 8 F0 0C FF FF FF FF FF FF  Length = 0 BitCount = 0 ID = 352264993x
   0.308669 1  18FEBF0Bx       Rx   d 8 33 04 7D 7C 7B 7A FF FF  Length = 0 BitCount = 0 ID = 419348235x
   0.312317 1  CF00400x        Rx   d 8 F6 8C 8C B2 1A 03 FF 8C  Length = 0 BitCount = 0 ID = 217056256x
   0.312889 1  CF00300x        Rx   d 8 DC 33 14 FF FF FF B6 FF  Length = 0 BitCount = 0 ID = 217056000x
   0.313469 1  18FEE000x       Rx   d 8 17 05 7B 00 17 05 7B 00  Length = 0 BitCount = 0 ID = 419356672x
   0.315148 1 J1587  14 Rx    80 64 4F 66 09 6E AE AE 22 02 AF 9C 02 46 7F 47 00 59 00 BE
   0.316133 1  CF00203x        Rx   d 8 DD 58 02 FF F0 B8 1A FF  Length = 0 BitCount = 0 ID = 217055747x
   0.316737 1  C000003x        Rx   d 8 C3 80 1B FA FF FF FF FF  Length = 0 BitCount = 0 ID = 201326595x
   0.322285 1  CF00400x        Rx   d 8 F6 8C 8C B2 1A 03 FF 8C  Length = 0 BitCount = 0 ID = 217056256x
   0.322611 1 J1587   6 Rx    80 CB 02 24 05 8A
   0.326049 1  C000F03x        Rx   d 8 C2 FF FF 7D FF FF FF FF  Length = 0 BitCount = 0 ID = 201330435x
   0.326629 1  CF00203x        Rx   d 8 DD 58 02 FF F0 A0 1A FF  Length = 0 BitCount = 0 ID = 217055747x
   0.327233 1  C000003x        Rx   d 8 C3 80 1B FA FF FF FF FF  Length = 0 BitCount = 0 ID = 201326595x
   0.330595 1 J1587   5 Rx    82 BF 2D 01 91
   0.332721 1  CF00400x        Rx   d 8 F6 8C 8C B2 1A 03 FF 8C  Length = 0 BitCount = 0 ID = 217056256x
   0.336054 1  CF00203x        Rx   d 8 DD 58 02 FF F0 C0 1A FF  Length = 0 BitCount = 0 ID = 217055747x
   0.336658 1  C000003x        Rx   d 8 C3 80 1B FA FF FF FF FF  Length = 0 BitCount = 0 ID = 201326595x
   0.337626 1  18FF2421x       Rx   d 8 A4 F5 FF FF FF FF FF FF  Length = 0 BitCount = 0 ID = 419374113x
   0.340550 1 J1587   4 Rx    B3 00 40 0D
   0.342281 1  C00000Bx        Rx   d 8 FC FF FA FA FF FF FF FF  Length = 0 BitCount = 0 ID = 201326603x
   0.342829 1  CF00400x        Rx   d 8 F6 8C 8C B2 1A 03 FF 8C  Length = 0 BitCount = 0 ID = 217056256x
   0.345341 1  14FF3131x       Rx   d 8 00 30 03 00 00 FF FF F0  Length = 0 BitCount = 0 ID = 352268593x
   0.346029 1  CF00203x        Rx   d 8 DD 58 02 FF F0 B8 1A FF  Length = 0 BitCount = 0 ID = 217055747x
   0.346633 1  C000003x        Rx   d 8 C3 80 1B FA FF FF FF FF  Length = 0 BitCount = 0 ID = 201326595x
   0.347737 1  18F0010Bx       Rx   d 8 C0 FF F0 FF FF 0D FF 3F  Length = 0 BitCount = 0 ID = 418382091x
   0.348293 1  10FF2121x       Rx   d 8 72 55 15 C0 FF FF FF FA  Length = 0 BitCount = 0 ID = 285155617x
   0.350622 1  18F00503x       Rx   d 8 7C DE 2B 7C 20 52 52 31  Length = 0 BitCount = 0 ID = 418383107x
   0.351226 1  18FE4A03x       Rx   d 8 FF FF FF FF FF F3 FF FF  Length = 0 BitCount = 0 ID = 419318275x
   0.351842 1  18FED9EFx       Rx   d 8 00 FF FF FF FF FF FF FF  Length = 0 BitCount = 0 ID = 419355119x
   0.352461 1  CF00400x        Rx   d 8 F6 8C 8C B7 1A 03 FF 8C  Length = 0 BitCount = 0 ID = 217056256x
   0.353037 1  18FEF100x       Rx   d 8 C3 2A 04 C0 00 00 00 30  Length = 0 BitCount = 0 ID = 419361024x
   0.353614 1  C000F0Bx        Rx   d 8 FC FF FA 00 FF FF FF FF  Length = 0 BitCount = 0 ID = 201330443x
   0.356250 1  CF00203x        Rx   d 8 DD 58 02 FF F0 A8 1A FF  Length = 0 BitCount = 0 ID = 217055747x
   0.356858 1  C000003x        Rx   d 8 C3 80 1B FA FF FF FF FF  Length = 0 BitCount = 0 ID = 201326595x
   0.357674 1 J1587e22   d Rx    F5 54 05 BE 59 0D 28 C3 5B 33 5C 2A 04
   0.358670 1  18FEBF0Bx       Rx   d 8 3B 04 7D 7C 7B 79 FF FF  Length = 0 BitCount = 0 ID = 419348235x
   0.359414 1  14FEF131x       Rx   d 8 CF FF FF F3 00 FF FF 3F  Length = 0 BitCount = 0 ID = 352252209x
   0.362026 1  CF00400x        Rx   d 8 F6 8C 8C B7 1A 03 FF 8C  Length = 0 BitCount = 0 ID = 217056256x
   0.362598 1  CF00300x        Rx   d 8 DC 33 14 FF FF FF B6 FF  Length = 0 BitCount = 0 ID = 217056000x
   0.362789 1 J1587   4 Rx    80 40 F1 4F
   0.366114 1  CF00203x        Rx   d 8 DD 58 02 FF F0 B0 1A FF  Length = 0 BitCount = 0 ID = 217055747x
   0.366734 1  C000003x        Rx   d 8 C3 80 1B FA FF FF FF FF  Length = 0 BitCount = 0 ID = 201326595x
   0.369294 1  14FEF121x       Rx   d 8 F3 FF FF CF FF FF FF FF  Length = 0 BitCount = 0 ID = 352252193x
   0.369870 1  C00100Bx        Rx   d 8 FC FF FA 00 FF FF FF FF  Length = 0 BitCount = 0 ID = 201330699x
   0.372078 1  CF00400x        Rx   d 8 F6 8C 8C B3 1A 03 FF 8C  Length = 0 BitCount = 0 ID = 217056256x
   0.372670 1  18FEDF00x       Rx   d 8 83 00 13 FF 7E FF FF FF  Length = 0 BitCount = 0 ID = 419356416x
   0.373258 1  18F0000Fx       Rx   d 8 06 7D FF FF 03 FF FF FF  Length = 0 BitCount = 0 ID = 418381839x
   0.376146 1  C000F03x        Rx   d 8 C2 FF FF 7D FF FF FF FF  Length = 0 BitCount = 0 ID = 201330435x
   0.376726 1  CF00203x        Rx   d 8 DD 58 02 FF F0 A0 1A FF  Length = 0 BitCount = 0 ID = 217055747x
   0.377330 1  C000003x        Rx   d 8 C3 80 1B FA FF FF FF FF  Length = 0 BitCount = 0 ID = 201326595x
   0.379282 1  14F00131x       Rx   d 8 FF FF FF FF 00 FF FF FF  Length = 0 BitCount = 0 ID = 351273265x
   0.380542 1  C00290Bx        Rx   d 8 FC FF FA 00 FF FF FF FF  Length = 0 BitCount = 0 ID = 201337099x
   0.382411 1  CF00400x        Rx   d 8 F6 8C 8C AE 1A 03 FF 8C  Length = 0 BitCount = 0 ID = 217056256x
   0.382999 1  18FEF200x       Rx   d 8 64 00 59 01 36 05 FF FF  Length = 0 BitCount = 0 ID = 419361280x
   0.386071 1  CF00203x        Rx   d 8 DD 58 02 FF F0 B8 1A FF  Length = 0 BitCount = 0 ID = 217055747x
   0.386679 1  C000003x        Rx   d 8 C3 80 1B FA FF FF FF FF  Length = 0 BitCount = 0 ID = 201326595x
   0.389339 1  14F00031x       Rx   d 8 CF FF FF FF FF FF FF FF  Length = 0 BitCount = 0 ID = 351273009x
   0.392506 1  CF00400x        Rx   d 8 F6 8C 8C B2 1A 03 FF 8C  Length = 0 BitCount = 0 ID = 217056256x
   0.395560 1 J1587   f Rx    88 31 00 97 00 C0 54 05 A8 1E 01 D1 01 FC 02
   0.396031 1  CF00203x        Rx   d 8 DD 58 02 FF F0 A0 1A FF  Length = 0 BitCount = 0 ID = 217055747x
   0.396651 1  C000003x        Rx   d 8 C3 80 1B FA FF FF FF FF  Length = 0 BitCount = 0 ID = 201326595x
   0.397635 1  10FF2121x       Rx   d 8 72 55 15 C0 FF FF FF FA  Length = 0 BitCount = 0 ID = 285155617x
   0.402207 1  CF00400x        Rx   d 8 F6 8C 8C B2 1A 03 FF 8C  Length = 0 BitCount = 0 ID = 217056256x
   0.402807 1  10FE6F00x       Rx   d 8 FF FF FF FF FF FF FF FF  Length = 0 BitCount = 0 ID = 285110016x
   0.403407 1  18FEF000x       Rx   d 8 FF FF FF 00 00 F4 00 FF  Length = 0 BitCount = 0 ID = 419360768x
   0.405979 1  CF00203x        Rx   d 8 DD 58 02 FF F0 C8 1A FF  Length = 0 BitCount = 0 ID = 217055747x
   0.406603 1  C000003x        Rx   d 8 C3 80 1B FA FF FF FF FF  Length = 0 BitCount = 0 ID = 201326595x
   0.407883 1  14FF2321x       Rx   d 8 F0 0C FF FF FF FF FF FF  Length = 0 BitCount = 0 ID = 352264993x
   0.408675 1  18FEBF0Bx       Rx   d 8 36 04 7D 7C 7C 7A FF FF  Length = 0 BitCount = 0 ID = 419348235x
   0.412403 1  CF00400x        Rx   d 8 F6 8C 8C B7 1A 03 FF 8C  Length = 0 BitCount = 0 ID = 217056256x
   0.412975 1  CF00300x        Rx   d 8 DC 33 14 FF FF FF B6 FF  Length = 0 BitCount = 0 ID = 217056000x
   0.413555 1  18FEE000x       Rx   d 8 17 05 7B 00 17 05 7B 00  Length = 0 BitCount = 0 ID = 419356672x
   0.416051 1  CF00203x        Rx   d 8 DD 58 02 FF F0 C8 1A FF  Length = 0 BitCount = 0 ID = 217055747x
   0.416655 1  C000003x        Rx   d 8 C3 80 1B FA FF FF FF FF  Length = 0 BitCount = 0 ID = 201326595x
   0.417962 1 J1587  14 Rx    80 55 00 79 00 B7 55 00 B8 96 01 5D 08 69 87 6A 3D 6C E3 0C
   0.422267 1  CF00400x        Rx   d 8 F6 8C 8C C1 1A 03 FF 8C  Length = 0 BitCount = 0 ID = 217056256x
   0.425955 1  C000F03x        Rx   d 8 C2 FF FF 7D FF FF FF FF  Length = 0 BitCount = 0 ID = 201330435x
   0.426535 1  CF00203x        Rx   d 8 DD 58 02 FF F0 A8 1A FF  Length = 0 BitCount = 0 ID = 217055747x
   0.426585 1 J1587   6 Rx    F9 41 F3 46 00 8D
   0.427139 1  C000003x        Rx   d 8 C3 80 1B FA FF FF FF FF  Length = 0 BitCount = 0 ID = 201326595x
   0.432447 1  CF00400x        Rx   d 8 F6 8C 8C C9 1A 03 FF 8C  Length = 0 BitCount = 0 ID = 217056256x
   0.434570 1 J1587   5 Rx    82 BF 2F 01 8F
   0.435963 1  CF00203x        Rx   d 8 DD 58 02 FF F0 C0 1A FF  Length = 0 BitCount = 0 ID = 217055747x
   0.436567 1  C000003x        Rx   d 8 C3 80 1B FA FF FF FF FF  Length = 0 BitCount = 0 ID = 201326595x
   0.442287 1  C00000Bx        Rx   d 8 FC FF FA FA FF FF FF FF  Length = 0 BitCount = 0 ID = 201326603x
   0.442835 1  CF00400x        Rx   d 8 F6 8C 8C D7 1A 03 FF 8C  Length = 0 BitCount = 0 ID = 217056256x
   0.445304 1  14FF3131x       Rx   d 8 00 30 03 00 00 FF FF F0  Length = 0 BitCount = 0 ID = 352268593x
   0.445943 1  CF00203x        Rx   d 8 DD 58 02 FF F0 D0 1A FF  Length = 0 BitCount = 0 ID = 217055747x
   0.446547 1  C000003x        Rx   d 8 C3 80 1B FA FF FF FF FF  Length = 0 BitCount = 0 ID = 201326595x
   0.447740 1  18F0010Bx       Rx   d 8 C0 FF F0 FF FF 0D FF 3F  Length = 0 BitCount = 0 ID = 418382091x
   0.448296 1  10FF2121x       Rx   d 8 72 55 15 C0 FF FF FF FA  Length = 0 BitCount = 0 ID = 285155617x
   0.448918 1 J1587   b Rx    80 54 05 BE 64 0D 5B 33 5C 2A E4
   0.450620 1  18F00503x       Rx   d 8 7C DE 2B 7C 20 52 52 31  Length = 0 BitCount = 0 ID = 418383107x
   0.451224 1  18FE4A03x       Rx   d 8 FF FF FF FF FF F3 FF FF  Length = 0 BitCount = 0 ID = 419318275x
   0.451836 1  18FED9EFx       Rx   d 8 00 FF FF FF FF FF FF FF  Length = 0 BitCount = 0 ID = 419355119x
   0.452420 1  CF00400x        Rx   d 8 F6 8C 8C E5 1A 03 FF 8C  Length = 0 BitCount = 0 ID = 217056256x
   0.452996 1  18FEF100x       Rx   d 8 C3 2A 04 C0 00 00 00 30  Length = 0 BitCount = 0 ID = 419361024x
   0.456164 1  CF00203x        Rx   d 8 DD 58 02 FF F0 F0 1A FF  Length = 0 BitCount = 0 ID = 217055747x
   0.456788 1  C000003x        Rx   d 8 C3 80 1B FA FF FF FF FF  Length = 0 BitCount = 0 ID = 201326595x
   0.458680 1  18FEBF0Bx       Rx   d 8 3B 04 7D 7C 7C 7A FF FF  Length = 0 BitCount = 0 ID = 419348235x
   0.459288 1  14FEF131x       Rx   d 8 CF FF FF F3 00 FF FF 3F  Length = 0 BitCount = 0 ID = 352252209x
   0.461992 1  CF00400x        Rx   d 8 F6 8C 8C E9 1A 03 FF 8C  Length = 0 BitCount = 0 ID = 217056256x
   0.462564 1  CF00300x        Rx   d 8 DC 33 14 FF FF FF B6 FF  Length = 0 BitCount = 0 ID = 217056000x
   0.466016 1  CF00203x        Rx   d 8 DD 58 02 FF F0 D8 1A FF  Length = 0 BitCount = 0 ID = 217055747x
   0.466620 1  C000003x        Rx   d 8 C3 80 1B FA FF FF FF FF  Length = 0 BitCount = 0 ID = 201326595x
   0.469284 1  14FEF121x       Rx   d 8 F3 FF FF CF FF FF FF FF  Length = 0 BitCount = 0 ID = 352252193x
   0.470417 1  18FF1919x       Rx   d 8 01 43 00 04 FF FF FF FF  Length = 0 BitCount = 0 ID = 419371289x
   0.472068 1  CF00400x        Rx   d 8 F6 8C 8C E5 1A 03 FF 8C  Length = 0 BitCount = 0 ID = 217056256x
   0.472660 1  18FEDF00x       Rx   d 8 83 00 13 FF 7E FF FF FF  Length = 0 BitCount = 0 ID = 419356416x
   0.473248 1  18F0000Fx       Rx   d 8 06 7D FF FF 03 FF FF FF  Length = 0 BitCount = 0 ID = 418381839x
   0.475220 1  18FF1B19x       Rx   d 8 FF FD FF FF FF FF FF FF  Length = 0 BitCount = 0 ID = 419371801x
   0.476056 1  C000F03x        Rx   d 8 C2 FF FF 7D FF FF FF FF  Length = 0 BitCount = 0 ID = 201330435x
   0.476640 1  CF00203x        Rx   d 8 DD 60 02 FF F0 F0 1A FF  Length = 0 BitCount = 0 ID = 217055747x
   0.477244 1  C000003x        Rx   d 8 C3 80 1B FA FF FF FF FF  Length = 0 BitCount = 0 ID = 201326595x
   0.479240 1  14F00131x       Rx   d 8 FF FF FF FF 00 FF FF FF  Length = 0 BitCount = 0 ID = 351273265x
   0.480480 1  18E00019x       Rx   d 8 FA FF FF FF FF FF FF FF  Length = 0 BitCount = 0 ID = 417333273x
   0.482396 1  CF00400x        Rx   d 8 F6 8C 8C E5 1A 03 FF 8C  Length = 0 BitCount = 0 ID = 217056256x
   0.482976 1  18FEF200x       Rx   d 8 64 00 66 01 36 05 FF FF  Length = 0 BitCount = 0 ID = 419361280x
   0.485512 1  18FEF719x       Rx   d 8 FF FF FF FF FF FF 1A 01  Length = 0 BitCount = 0 ID = 419362585x
   0.486072 1  CF00203x        Rx   d 8 DD 60 02 FF F0 E0 1A FF  Length = 0 BitCount = 0 ID = 217055747x
   0.486676 1  C000003x        Rx   d 8 C3 80 1B FA FF FF FF FF  Length = 0 BitCount = 0 ID = 201326595x
   0.489280 1  14F00031x       Rx   d 8 CF FF FF FF FF FF FF FF  Length = 0 BitCount = 0 ID = 351273009x
   0.492292 1  CF00400x        Rx   d 8 F6 8C 8C E5 1A 03 FF 8C  Length = 0 BitCount = 0 ID = 217056256x
   0.495944 1  CF00203x        Rx   d 8 DD 60 02 FF F0 E0 1A FF  Length = 0 BitCount = 0 ID = 217055747x
   0.496560 1  C000003x        Rx   d 8 C3 80 1B FA FF FF FF FF  Length = 0 BitCount = 0 ID = 201326595x
   0.497625 1  10FF2121x       Rx   d 8 72 55 15 C0 FF FF FF FA  Length = 0 BitCount = 0 ID = 285155617x
   0.502160 1  CF00400x        Rx   d 8 F6 8C 8C E5 1A 03 FF 8C  Length = 0 BitCount = 0 ID = 217056256x
   0.502760 1  10FE6F00x       Rx   d 8 FF FF FF FF FF FF FF FF  Length = 0 BitCount = 0 ID = 285110016x
   0.503352 1  18FEF000x       Rx   d 8 FF FF FF 00 00 F4 00 FF  Length = 0 BitCount = 0 ID = 419360768x
   0.505884 1  CF00203x        Rx   d 8 DD 60 02 FF F0 E0 1A FF  Length = 0 BitCount = 0 ID = 217055747x
   0.505958 1 J1587   5 Rx    82 BF 30 01 8E
   0.506488 1  C000003x        Rx   d 8 C3 80 1B FA FF FF FF FF  Length = 0 BitCount = 0 ID = 201326595x
   0.507777 1  14FF2321x       Rx   d 8 F0 0C FF FF FF FF FF FF  Length = 0 BitCount = 0 ID = 352264993x
   0.508685 1  18FEBF0Bx       Rx   d 8 3B 04 7D 7C 7C 7A FF FF  Length = 0 BitCount = 0 ID = 419348235x
   0.512309 1  CF00400x        Rx   d 8 F6 8C 8C EC 1A 03 FF 8C  Length = 0 BitCount = 0 ID = 217056256x
   0.512881 1  CF00300x        Rx   d 8 DC 33 14 FF FF FF B6 FF  Length = 0 BitCount = 0 ID = 217056000x
   0.513461 1  18FEE000x       Rx   d 8 17 05 7B 00 17 05 7B 00  Length = 0 BitCount = 0 ID = 419356672x
   0.515961 1  CF00203x        Rx   d 8 DD 60 02 FF F0 D8 1A FF  Length = 0 BitCount = 0 ID = 217055747x
   0.516581 1  C000003x        Rx   d 8 C3 80 1B FA FF FF FF FF  Length = 0 BitCount = 0 ID = 201326595x
   0.519488 1 J1587   6 Rx    F9 41 F3 46 00 8D
   0.522309 1  CF00400x        Rx   d 8 F6 8C 8C E1 1A 03 FF 8C  Length = 0 BitCount = 0 ID = 217056256x
   0.522897 1  18FDB300x       Rx   d 8 FF FF C0 36 FF FF FF FF  Length = 0 BitCount = 0 ID = 419279616x
   0.525865 1  C000F03x        Rx   d 8 C2 FF FF 7D FF FF FF FF  Length = 0 BitCount = 0 ID = 201330435x
   0.526449 1  CF00203x        Rx   d 8 DD 60 02 FF F0 E8 1A FF  Length = 0 BitCount = 0 ID = 217055747x
   0.527053 1  C000003x        Rx   d 8 C3 80 1B FA FF FF FF FF  Length = 0 BitCount = 0 ID = 201326595x
   0.532445 1  CF00400x        Rx   d 8 F6 8C 8C E0 1A 03 FF 8C  Length = 0 BitCount = 0 ID = 217056256x
   0.533029 1  18FEEF00x       Rx   d 8 0D FF FF 46 FF FF FF FA  Length = 0 BitCount = 0 ID = 419360512x
   0.535873 1  CF00203x        Rx   d 8 DD 60 02 FF F0 D0 1A FF  Length = 0 BitCount = 0 ID = 217055747x
   0.536477 1  C000003x        Rx   d 8 C3 80 1B FA FF FF FF FF  Length = 0 BitCount = 0 ID = 201326595x
   0.542245 1  CF00400x        Rx   d 8 F6 8C 8C E4 1A 03 FF 8C  Length = 0 BitCount = 0 ID = 217056256x
   0.542825 1  C00000Bx        Rx   d 8 FC FF FA FA FF FF FF FF  Length = 0 BitCount = 0 ID = 201326603x
   0.543413 1  18FEDB00x       Rx   d 8 FF FF FF FF FF FF FF FF  Length = 0 BitCount = 0 ID = 419355392x
   0.545325 1  14FF3131x       Rx   d 8 00 30 03 00 00 FF FF F0  Length = 0 BitCount = 0 ID = 352268593x
   0.545897 1  CF00203x        Rx   d 8 DD 60 02 FF F0 00 1B FF  Length = 0 BitCount = 0 ID = 217055747x
   0.546501 1  C000003x        Rx   d 8 C3 80 1B FA FF FF FF FF  Length = 0 BitCount = 0 ID = 201326595x
   0.547749 1  18F0010Bx       Rx   d 8 C0 FF F0 FF FF 0D FF 3F  Length = 0 BitCount = 0 ID = 418382091x
   0.548305 1  10FF2121x       Rx   d 8 72 55 15 C0 FF FF FF FA  Length = 0 BitCount = 0 ID = 285155617x
   0.548969 1  18F00503x       Rx   d 8 7C DE 2B 7C 20 52 52 31  Length = 0 BitCount = 0 ID = 418383107x
   0.549574 1  18FE4A03x       Rx   d 8 FF FF FF FF FF F3 FF FF  Length = 0 BitCount = 0 ID = 419318275x
   0.550186 1  18FED9EFx       Rx   d 8 00 FF FF FF FF FF FF FF  Length = 0 BitCount = 0 ID = 419355119x
   0.551088 1 J1587   d Rx    80 54 05 BE 70 0D 28 C3 5B 33 5C 29 EE
   0.552373 1  CF00400x        Rx   d 8 F6 8C 8C E4 1A 03 FF 8C  Length = 0 BitCount = 0 ID = 217056256x
   0.552949 1  18FEF100x       Rx   d 8 C3 38 04 C0 00 00 00 30  Length = 0 BitCount = 0 ID = 419361024x
   0.553526 1  C000F0Bx        Rx   d 8 FC FF FA 00 FF FF FF FF  Length = 0 BitCount = 0 ID = 201330443x
   0.554113 1  18FD0700x       Rx   d 8 03 00 00 FF FF FF FF FF  Length = 0 BitCount = 0 ID = 419235584x
   0.556070 1  CF00203x        Rx   d 8 DD 60 02 FF F0 F0 1A FF  Length = 0 BitCount = 0 ID = 217055747x
   0.556674 1  C000003x        Rx   d 8 C3 80 1B FA FF FF FF FF  Length = 0 BitCount = 0 ID = 201326595x
   0.558690 1  18FEBF0Bx       Rx   d 8 3B 04 7D 7C 7C 79 FF FF  Length = 0 BitCount = 0 ID = 419348235x
   0.559294 1  14FEF131x       Rx   d 8 CF FF FF F3 00 FF FF 3F  Length = 0 BitCount = 0 ID = 352252209x
   0.562002 1  CF00400x        Rx   d 8 F6 8C 8C F2 1A 03 FF 8C  Length = 0 BitCount = 0 ID = 217056256x
   0.562574 1  CF00300x        Rx   d 8 DC 33 14 FF FF FF B6 FF  Length = 0 BitCount = 0 ID = 217056000x
   0.565934 1  CF00203x        Rx   d 8 DD 60 02 FF F0 E0 1A FF  Length = 0 BitCount = 0 ID = 217055747x
   0.566550 1  C000003x        Rx   d 8 C3 80 1B FA FF FF FF FF  Length = 0 BitCount = 0 ID = 201326595x
   0.569282 1  14FEF121x       Rx   d 8 F3 FF FF CF FF FF FF FF  Length = 0 BitCount = 0 ID = 352252193x
   0.569858 1  C00100Bx        Rx   d 8 FC FF FA 00 FF FF FF FF  Length = 0 BitCount = 0 ID = 201330699x
   0.572090 1  CF00400x        Rx   d 8 F6 8C 8C F7 1A 03 FF 8C  Length = 0 BitCount = 0 ID = 217056256x
   0.572682 1  18FEDF00x       Rx   d 8 84 00 13 FF 7E FF FF FF  Length = 0 BitCount = 0 ID = 419356416x
   0.573270 1  18F0000Fx       Rx   d 8 06 7D FF FF 03 FF FF FF  Length = 0 BitCount = 0 ID = 418381839x
   0.575962 1  C000F03x        Rx   d 8 C2 FF FF 7D FF FF FF FF  Length = 0 BitCount = 0 ID = 201330435x
   0.576546 1  CF00203x        Rx   d 8 DD 60 02 FF F0 E8 1A FF  Length = 0 BitCount = 0 ID = 217055747x
   0.577150 1  C000003x        Rx   d 8 C3 80 1B FA FF FF FF FF  Length = 0 BitCount = 0 ID = 201326595x
   0.579282 1  14F00131x       Rx   d 8 FF FF FF FF 00 FF FF FF  Length = 0 BitCount = 0 ID = 351273265x
   0.580558 1  C00290Bx        Rx   d 8 FC FF FA 00 FF FF FF FF  Length = 0 BitCount = 0 ID = 201337099x
   0.582414 1  CF00400x        Rx   d 8 F6 8C 8C FC 1A 03 FF 8C  Length = 0 BitCount = 0 ID = 217056256x
   0.582994 1  18FEF200x       Rx   d 8 64 00 66 01 36 05 FF FF  Length = 0 BitCount = 0 ID = 419361280x
   0.585891 1  CF00203x        Rx   d 8 DD 60 02 FF F0 E8 1A FF  Length = 0 BitCount = 0 ID = 217055747x
   0.586495 1  C000003x        Rx   d 8 C3 80 1B FA FF FF FF FF  Length = 0 BitCount = 0 ID = 201326595x
   0.589271 1  14F00031x       Rx   d 8 CF FF FF FF FF FF FF FF  Length = 0 BitCount = 0 ID = 351273009x
   0.592531 1  CF00400x        Rx   d 8 F6 8C 8C 04 1B 03 FF 8C  Length = 0 BitCount = 0 ID = 217056256x
   0.595859 1  CF00203x        Rx   d 8 DD 60 02 FF F0 08 1B FF  Length = 0 BitCount = 0 ID = 217055747x
   0.596467 1  C000003x        Rx   d 8 C3 80 1B FA FF FF FF FF  Length = 0 BitCount = 0 ID = 201326595x
   0.597667 1  10FF2121x       Rx   d 8 72 55 15 C0 FF FF FF FA  Length = 0 BitCount = 0 ID = 285155617x
   0.602203 1  CF00400x        Rx   d 8 F6 8C 8C 04 1B 03 FF 8C  Length = 0 BitCount = 0 ID = 217056256x
   0.602803 1  10FE6F00x       Rx   d 8 FF FF FF FF FF FF FF FF  Length = 0 BitCount = 0 ID = 285110016x
   0.603395 1  18FEF000x       Rx   d 8 FF FF FF 00 00 F4 00 FF  Length = 0 BitCount = 0 ID = 419360768x
   0.605791 1  CF00203x        Rx   d 8 DD 60 02 FF F0 F0 1A FF  Length = 0 BitCount = 0 ID = 217055747x
   0.606395 1  C000003x        Rx   d 8 C3 80 1B FA FF FF FF FF  Length = 0 BitCount = 0 ID = 201326595x
   0.607739 1  14FF2321x       Rx   d 8 F0 0C FF FF FF FF FF FF  Length = 0 BitCount = 0 ID = 352264993x
   0.608691 1  18FEBF0Bx       Rx   d 8 36 04 7E 7C 7C 79 FF FF  Length = 0 BitCount = 0 ID = 419348235x
   0.609029 1 J1587  14 Rx    80 55 00 79 00 B7 55 00 B8 A5 01 7A 00 A8 19 01 AD 74 03 E8
   0.612331 1  CF00400x        Rx   d 8 F6 8C 8C 05 1B 03 FF 8C  Length = 0 BitCount = 0 ID = 217056256x
   0.612903 1  CF00300x        Rx   d 8 DC 33 14 FF FF FF B6 FF  Length = 0 BitCount = 0 ID = 217056000x
   0.613483 1  18FEE000x       Rx   d 8 17 05 7B 00 17 05 7B 00  Length = 0 BitCount = 0 ID = 419356672x
   0.615871 1  CF00203x        Rx   d 8 DD 60 02 FF F0 18 1B FF  Length = 0 BitCount = 0 ID = 217055747x
   0.616491 1  C000003x        Rx   d 8 C3 80 1B FA FF FF FF FF  Length = 0 BitCount = 0 ID = 201326595x
   0.617031 1 J1587   6 Rx    80 FF B7 40 00 8A
   0.622267 1  CF00400x        Rx   d 8 F6 8C 8C 05 1B 03 FF 8C  Length = 0 BitCount = 0 ID = 217056256x
   0.622835 1  18FEF600x       Rx   d 8 FF 35 61 35 FF 40 2F FF  Length = 0 BitCount = 0 ID = 419362304x
   0.625767 1  C000F03x        Rx   d 8 C2 FF FF 7D FF FF FF FF  Length = 0 BitCount = 0 ID = 201330435x
   0.626367 1  CF00203x        Rx   d 8 DD 60 02 FF F0 00 1B FF  Length = 0 BitCount = 0 ID = 217055747x
   0.626971 1  C000003x        Rx   d 8 C3 80 1B FA FF FF FF FF  Length = 0 BitCount = 0 ID = 201326595x
   0.632475 1  CF00400x        Rx   d 8 F6 8C 8C FD 1A 03 FF 8C  Length = 0 BitCount = 0 ID = 217056256x
   0.633075 1  18FDD000x       Rx   d 8 FF FF FF FF 05 FF FF FF  Length = 0 BitCount = 0 ID = 419287040x
   0.635396 1 J1587   e Rx    82 E2 07 90 28 02 12 20 52 31 BF 31 01 35
   0.635779 1  CF00203x        Rx   d 8 DD 60 02 FF F0 F0 1A FF  Length = 0 BitCount = 0 ID = 217055747x
   0.636383 1  C000003x        Rx   d 8 C3 80 1B FA FF FF FF FF  Length = 0 BitCount = 0 ID = 201326595x
   0.639700 1 J1587e15   1 Rx    80
   0.642255 1  CF00400x        Rx   d 8 F6 8C 8C 00 1B 03 FF 8C  Length = 0 BitCount = 0 ID = 217056256x
   0.642835 1  C00000Bx        Rx   d 8 FC FF FA FA FF FF FF FF  Length = 0 BitCount = 0 ID = 201326603x
   0.643399 1  18FEF500x       Rx   d 8 C4 FF FF A0 25 61 FF FF  Length = 0 BitCount = 0 ID = 419362048x
   0.645291 1  14FF3131x       Rx   d 8 00 30 03 00 00 FF FF F0  Length = 0 BitCount = 0 ID = 352268593x
   0.645851 1  CF00203x        Rx   d 8 DD 60 02 FF F0 F8 1A FF  Length = 0 BitCount = 0 ID = 217055747x
   0.646456 1  C000003x        Rx   d 8 C3 80 1B FA FF FF FF FF  Length = 0 BitCount = 0 ID = 201326595x
   0.646790 1 J1587   6 Rx    F9 41 F3 46 00 8D
   0.647704 1  10FF2121x       Rx   d 8 72 55 15 C0 FF FF FF FA  Length = 0 BitCount = 0 ID = 285155617x
   0.648268 1  18F0010Bx       Rx   d 8 C0 FF F0 FF FF 0D FF 3F  Length = 0 BitCount = 0 ID = 418382091x
   0.650336 1  18F00503x       Rx   d 8 7C DE 2B 7C 20 52 52 31  Length = 0 BitCount = 0 ID = 418383107x
   0.650940 1  18FE4A03x       Rx   d 8 FF FF FF FF FF F3 FF FF  Length = 0 BitCount = 0 ID = 419318275x
   0.651556 1  18FED9EFx       Rx   d 8 00 FF FF FF FF FF FF FF  Length = 0 BitCount = 0 ID = 419355119x
   0.652464 1  CF00400x        Rx   d 8 F6 8C 8C FD 1A 03 FF 8C  Length = 0 BitCount = 0 ID = 217056256x
   0.653040 1  18FEF100x       Rx   d 8 C3 38 04 C0 00 00 00 30  Length = 0 BitCount = 0 ID = 419361024x
   0.655984 1  CF00203x        Rx   d 8 DD 60 02 FF F0 F0 1A FF  Length = 0 BitCount = 0 ID = 217055747x
   0.656588 1  C000003x        Rx   d 8 C3 80 1B FA FF FF FF FF  Length = 0 BitCount = 0 ID = 201326595x
   0.658700 1  18FEBF0Bx       Rx   d 8 36 04 7E 7B 7D 7A FF FF  Length = 0 BitCount = 0 ID = 419348235x
   0.659488 1  14FEF131x       Rx   d 8 CF FF FF F3 00 FF FF 3F  Length = 0 BitCount = 0 ID = 352252209x
   0.661203 1 J1587   b Rx    80 54 05 BE 7E 0D 5B 33 5C 29 CB
   0.662036 1  CF00400x        Rx   d 8 F6 8C 8C FA 1A 03 FF 8C  Length = 0 BitCount = 0 ID = 217056256x
   0.662608 1  CF00300x        Rx   d 8 DC 33 14 FF FF FF B6 FF  Length = 0 BitCount = 0 ID = 217056000x
   0.665848 1  CF00203x        Rx   d 8 DD 60 02 FF F0 00 1B FF  Length = 0 BitCount = 0 ID = 217055747x
   0.666456 1  C000003x        Rx   d 8 C3 80 1B FA FF FF FF FF  Length = 0 BitCount = 0 ID = 201326595x
   0.669280 1  14FEF121x       Rx   d 8 F3 FF FF CF FF FF FF FF  Length = 0 BitCount = 0 ID = 352252193x
   0.672068 1  CF00400x        Rx   d 8 F6 8C 8C F7 1A 03 FF 8C  Length = 0 BitCount = 0 ID = 217056256x
   0.672660 1  18FEDF00x       Rx   d 8 84 00 13 FF 7E FF FF FF  Length = 0 BitCount = 0 ID = 419356416x
   0.673248 1  18F0000Fx       Rx   d 8 06 7D FF FF 03 FF FF FF  Length = 0 BitCount = 0 ID = 418381839x
   0.675868 1  C000F03x        Rx   d 8 C2 FF FF 7D FF FF FF FF  Length = 0 BitCount = 0 ID = 201330435x
   0.676452 1  CF00203x        Rx   d 8 DD 60 02 FF F0 E8 1A FF  Length = 0 BitCount = 0 ID = 217055747x
   0.677056 1  C000003x        Rx   d 8 C3 80 1B FA FF FF FF FF  Length = 0 BitCount = 0 ID = 201326595x
   0.679293 1  14F00131x       Rx   d 8 FF FF FF FF 00 FF FF FF  Length = 0 BitCount = 0 ID = 351273265x
   0.682385 1  CF00400x        Rx   d 8 F6 8C 8C F7 1A 03 FF 8C  Length = 0 BitCount = 0 ID = 217056256x
   0.682965 1  18FEF200x       Rx   d 8 64 00 6A 01 36 05 FF FF  Length = 0 BitCount = 0 ID = 419361280x
   0.685813 1  CF00203x        Rx   d 8 DD 60 02 FF F0 08 1B FF  Length = 0 BitCount = 0 ID = 217055747x
   0.686417 1  C000003x        Rx   d 8 C3 80 1B FA FF FF FF FF  Length = 0 BitCount = 0 ID = 201326595x
   0.689285 1  14F00031x       Rx   d 8 CF FF FF FF FF FF FF FF  Length = 0 BitCount = 0 ID = 351273009x
   0.692377 1  CF00400x        Rx   d 8 F6 8C 8C FA 1A 03 FF 8C  Length = 0 BitCount = 0 ID = 217056256x
   0.695753 1  CF00203x        Rx   d 8 DD 60 02 FF F0 E8 1A FF  Length = 0 BitCount = 0 ID = 217055747x
   0.696373 1  C000003x        Rx   d 8 C3 80 1B FA FF FF FF FF  Length = 0 BitCount = 0 ID = 201326595x
   0.697505 1  10FF2121x       Rx   d 8 72 55 15 C0 FF FF FF FA  Length = 0 BitCount = 0 ID = 285155617x
   0.702197 1  CF00400x        Rx   d 8 F6 8C 8C FC 1A 03 FF 8C  Length = 0 BitCount = 0 ID = 217056256x
   0.702797 1  10FE6F00x       Rx   d 8 FF FF FF FF FF FF FF FF  Length = 0 BitCount = 0 ID = 285110016x
   0.703389 1  18FEF000x       Rx   d 8 FF FF FF 00 00 F4 00 FF  Length = 0 BitCount = 0 ID = 419360768x
   0.705721 1  CF00203x        Rx   d 8 DD 60 02 FF F0 00 1B FF  Length = 0 BitCount = 0 ID = 217055747x
   0.706329 1  C000003x        Rx   d 8 C3 80 1B FA FF FF FF FF  Length = 0 BitCount = 0 ID = 201326595x
   0.707717 1  14FF2321x       Rx   d 8 F0 0C FF FF FF FF FF FF  Length = 0 BitCount = 0 ID = 352264993x
   0.708705 1  18FEBF0Bx       Rx   d 8 39 04 7F 7B 7E 7A FF FF  Length = 0 BitCount = 0 ID = 419348235x
   0.711879 1 J1587   b Rx    82 BF 33 01 A3 20 4E A2 20 52 66
   0.712641 1  CF00400x        Rx   d 8 F6 8C 8C 05 1B 03 FF 8C  Length = 0 BitCount = 0 ID = 217056256x
   0.713217 1  CF00300x        Rx   d 8 DC 34 14 FF FF FF B6 FF  Length = 0 BitCount = 0 ID = 217056000x
   0.713797 1  18FEE000x       Rx   d 8 17 05 7B 00 17 05 7B 00  Length = 0 BitCount = 0 ID = 419356672x
   0.715777 1  CF00203x        Rx   d 8 DD 60 02 FF F0 08 1B FF  Length = 0 BitCount = 0 ID = 217055747x
   0.716389 1  C000003x        Rx   d 8 C3 80 1B FA FF FF FF FF  Length = 0 BitCount = 0 ID = 201326595x
   0.722321 1  CF00400x        Rx   d 8 F6 8C 8C 09 1B 03 FF 8C  Length = 0 BitCount = 0 ID = 217056256x
   0.722913 1  18E0FF00x       Rx   d 8 FF FF FF FF FF F3 FF FF  Length = 0 BitCount = 0 ID = 417398528x
   0.725678 1  C000F03x        Rx   d 8 C2 FF FF 7D FF FF FF FF  Length = 0 BitCount = 0 ID = 201330435x
   0.726266 1  CF00203x        Rx   d 8 DD 60 02 FF F0 F8 1A FF  Length = 0 BitCount = 0 ID = 217055747x
   0.726756 1 J1587   a Rx    89 FE AC 4F F7 82 07 70 00 8E
   0.726878 1  C000003x        Rx   d 8 C3 80 1B FA FF FF FF FF  Length = 0 BitCount = 0 ID = 201326595x
   0.732758 1  CF00400x        Rx   d 8 F6 8C 8C 0C 1B 03 FF 8C  Length = 0 BitCount = 0 ID = 217056256x
   0.733330 1  18FEEE00x       Rx   d 8 77 63 A0 2B FF FF 61 FF  Length = 0 BitCount = 0 ID = 419360256x
   0.735750 1  CF00203x        Rx   d 8 DD 60 02 FF F0 08 1B FF  Length = 0 BitCount = 0 ID = 217055747x
   0.736362 1  C000003x        Rx   d 8 C3 80 1B FA FF FF FF FF  Length = 0 BitCount = 0 ID = 201326595x
   0.739459 1 J1587   6 Rx    F9 41 F3 46 00 8D
   0.742282 1  CF00400x        Rx   d 8 F6 8C 8C 09 1B 03 FF 8C  Length = 0 BitCount = 0 ID = 217056256x
   0.742862 1  C00000Bx        Rx   d 8 FC FF FA FA FF FF FF FF  Length = 0 BitCount = 0 ID = 201326603x
   0.743446 1  18FEA400x       Rx   d 8 FF FF FF FF FF FF FF FF  Length = 0 BitCount = 0 ID = 419341312x
   0.745302 1  14FF3131x       Rx   d 8 00 30 03 00 00 FF FF F0  Length = 0 BitCount = 0 ID = 352268593x
   0.745862 1  CF00203x        Rx   d 8 DD 60 02 FF F0 F8 1A FF  Length = 0 BitCount = 0 ID = 217055747x
   0.746466 1  C000003x        Rx   d 8 C3 80 1B FA FF FF FF FF  Length = 0 BitCount = 0 ID = 201326595x
   0.747762 1  18F0010Bx       Rx   d 8 C0 FF F0 FF FF 0D FF 3F  Length = 0 BitCount = 0 ID = 418382091x
   0.748318 1  10FF2121x       Rx   d 8 72 55 15 C0 FF FF FF FA  Length = 0 BitCount = 0 ID = 285155617x
   0.750122 1  18F00503x       Rx   d 8 7C DE 2B 7C 20 52 52 31  Length = 0 BitCount = 0 ID = 418383107x
   0.750726 1  18FE4A03x       Rx   d 8 FF FF FF FF FF F3 FF FF  Length = 0 BitCount = 0 ID = 419318275x
   0.751338 1  18FED9EFx       Rx   d 8 00 FF FF FF FF FF FF FF  Length = 0 BitCount = 0 ID = 419355119x
   0.752510 1  CF00400x        Rx   d 8 F6 8C 8C 08 1B 03 FF 8C  Length = 0 BitCount = 0 ID = 217056256x
   0.753086 1  18FEF100x       Rx   d 8 C3 38 04 C0 00 00 00 30  Length = 0 BitCount = 0 ID = 419361024x
   0.753662 1  C000F0Bx        Rx   d 8 FC FF FA 00 FF FF FF FF  Length = 0 BitCount = 0 ID = 201330443x
   0.755902 1  CF00203x        Rx   d 8 DD 60 02 FF F0 18 1B FF  Length = 0 BitCount = 0 ID = 217055747x
   0.756438 1 J1587e22   d Rx    F5 54 05 BE 86 0D 28 C3 5B 34 5C 29 D7
   0.756506 1  C000003x        Rx   d 8 C3 80 1B FA FF FF FF FF  Length = 0 BitCount = 0 ID = 201326595x
   0.758714 1  18FEBF0Bx       Rx   d 8 41 04 7F 7A 7E 7A FF FF  Length = 0 BitCount = 0 ID = 419348235x
   0.759295 1  14FEF131x       Rx   d 8 CF FF FF F3 00 FF FF 3F  Length = 0 BitCount = 0 ID = 352252209x
   0.762039 1  CF00400x        Rx   d 8 F6 8C 8C 05 1B 03 FF 8C  Length = 0 BitCount = 0 ID = 217056256x
   0.762615 1  CF00300x        Rx   d 8 DC 34 14 FF FF FF B6 FF  Length = 0 BitCount = 0 ID = 217056000x
   0.764275 1 J1587   7 Rx    A4 FE 8C F0 FF FF E4
   0.765751 1  CF00203x        Rx   d 8 DD 60 02 FF F0 F8 1A FF  Length = 0 BitCount = 0 ID = 217055747x
   0.766371 1  C000003x        Rx   d 8 C3 80 1B FA FF FF FF FF  Length = 0 BitCount = 0 ID = 201326595x
   0.769307 1  14FEF121x       Rx   d 8 F3 FF FF CF FF FF FF FF  Length = 0 BitCount = 0 ID = 352252193x
   0.769883 1  C00100Bx        Rx   d 8 FC FF FA 00 FF FF FF FF  Length = 0 BitCount = 0 ID = 201330699x
   0.772135 1  CF00400x        Rx   d 8 F6 8C 8C 05 1B 03 FF 8C  Length = 0 BitCount = 0 ID = 217056256x
   0.772727 1  18FEDF00x       Rx   d 8 84 00 13 FF 7E FF FF FF  Length = 0 BitCount = 0 ID = 419356416x
   0.773315 1  18F0000Fx       Rx   d 8 06 7D FF FF 03 FF FF FF  Length = 0 BitCount = 0 ID = 418381839x
   0.775775 1  C000F03x        Rx   d 8 C2 FF FF 7D FF FF FF FF  Length = 0 BitCount = 0 ID = 201330435x
   0.776371 1  CF00203x        Rx   d 8 DD 60 02 FF F0 08 1B FF  Length = 0 BitCount = 0 ID = 217055747x
   0.776975 1  C000003x        Rx   d 8 C3 80 1B FA FF FF FF FF  Length = 0 BitCount = 0 ID = 201326595x
   0.779287 1  14F00131x       Rx   d 8 FF FF FF FF 00 FF FF FF  Length = 0 BitCount = 0 ID = 351273265x
   0.779684 1 J1587   d Rx    F9 B1 00 80 AA 00 80 AB 49 01 6B 00 4C
   0.780579 1  C00290Bx        Rx   d 8 FC FF FA 00 FF FF FF FF  Length = 0 BitCount = 0 ID = 201337099x
   0.782635 1  CF00400x        Rx   d 8 F6 8C 8C 04 1B 03 FF 8C  Length = 0 BitCount = 0 ID = 217056256x
   0.783215 1  18FEF200x       Rx   d 8 64 00 6A 01 36 05 FF FF  Length = 0 BitCount = 0 ID = 419361280x
   0.785719 1  CF00203x        Rx   d 8 DD 60 02 FF F0 00 1B FF  Length = 0 BitCount = 0 ID = 217055747x
   0.786042 1 J1587   4 Rx    D8 60 00 C8
   0.786339 1  C000003x        Rx   d 8 C3 80 1B FA FF FF FF FF  Length = 0 BitCount = 0 ID = 201326595x
   0.789291 1  14F00031x       Rx   d 8 CF FF FF FF FF FF FF FF  Length = 0 BitCount = 0 ID = 351273009x
   0.792491 1  CF00400x        Rx   d 8 F6 8C 8C FD 1A 03 FF 8C  Length = 0 BitCount = 0 ID = 217056256x
   0.795663 1  CF00203x        Rx   d 8 DD 60 02 FF F0 F0 1A FF  Length = 0 BitCount = 0 ID = 217055747x
   0.796267 1  C000003x        Rx   d 8 C3 80 1B FA FF FF FF FF  Length = 0 BitCount = 0 ID = 201326595x
   0.797575 1  10FF2121x       Rx   d 8 72 55 15 C0 FF FF FF FA  Length = 0 BitCount = 0 ID = 285155617x
   0.802315 1  CF00400x        Rx   d 8 F6 8C 8C FC 1A 03 FF 8C  Length = 0 BitCount = 0 ID = 217056256x
   0.802915 1  10FE6F00x       Rx   d 8 FF FF FF FF FF FF FF FF  Length = 0 BitCount = 0 ID = 285110016x
   0.803507 1  18FEF000x       Rx   d 8 FF FF FF 00 00 F4 00 FF  Length = 0 BitCount = 0 ID = 419360768x
   0.805623 1  CF00203x        Rx   d 8 DD 60 02 FF F0 00 1B FF  Length = 0 BitCount = 0 ID = 217055747x
   0.806227 1  C000003x        Rx   d 8 C3 80 1B FA FF FF FF FF  Length = 0 BitCount = 0 ID = 201326595x
   0.806491 1 J1587  12 Rx    80 55 00 79 00 B7 55 00 B8 AA 01 F4 04 28 83 5F 00 41
   0.807835 1  14FF2321x       Rx   d 8 F0 0C FF FF FF FF FF FF  Length = 0 BitCount = 0 ID = 352264993x
   0.808700 1  18FEBF0Bx       Rx   d 8 4C 04 7F 7A 7E 79 FF FF  Length = 0 BitCount = 0 ID = 419348235x
   0.812680 1  CF00400x        Rx   d 8 F6 8C 8C 00 1B 03 FF 8C  Length = 0 BitCount = 0 ID = 217056256x
   0.813256 1  CF00300x        Rx   d 8 DC 34 14 FF FF FF B6 FF  Length = 0 BitCount = 0 ID = 217056000x
   0.813836 1  18FEE000x       Rx   d 8 17 05 7B 00 17 05 7B 00  Length = 0 BitCount = 0 ID = 419356672x
   0.814512 1 J1587   5 Rx    82 BF 33 01 8B
   0.815672 1  CF00203x        Rx   d 8 DD 60 02 FF F0 F0 1A FF  Length = 0 BitCount = 0 ID = 217055747x
   0.816276 1  C000003x        Rx   d 8 C3 80 1B FA FF FF FF FF  Length = 0 BitCount = 0 ID = 201326595x
   0.822267 1  CF00400x        Rx   d 8 F6 8C 8C 04 1B 03 FF 8C  Length = 0 BitCount = 0 ID = 217056256x
   0.822859 1  18FEBD00x       Rx   d 8 FA 0B 5E 20 FF FF FF FF  Length = 0 BitCount = 0 ID = 419347712x
   0.825584 1  C000F03x        Rx   d 8 C2 FF FF 7D FF FF FF FF  Length = 0 BitCount = 0 ID = 201330435x
   0.826180 1  CF00203x        Rx   d 8 DD 60 02 FF F0 10 1B FF  Length = 0 BitCount = 0 ID = 217055747x
   0.826784 1  C000003x        Rx   d 8 C3 80 1B FA FF FF FF FF  Length = 0 BitCount = 0 ID = 201326595x
   0.832408 1  CF00400x        Rx   d 8 F6 8C 8C 05 1B 03 FF 8C  Length = 0 BitCount = 0 ID = 217056256x
   0.832992 1  18FD7C00x       Rx   d 8 F8 F3 C0 34 FD FF E3 FF  Length = 0 BitCount = 0 ID = 419265536x
   0.835612 1  CF00203x        Rx   d 8 DD 60 02 FF F0 00 1B FF  Length = 0 BitCount = 0 ID = 217055747x
   0.836220 1  C000003x        Rx   d 8 C3 80 1B FA FF FF FF FF  Length = 0 BitCount = 0 ID = 201326595x
   0.837512 1  18FF2421x       Rx   d 8 A0 F5 FF FF FF FF FF FF  Length = 0 BitCount = 0 ID = 419374113x
   0.842328 1  C00000Bx        Rx   d 8 FC FF FA FA FF FF FF FF  Length = 0 BitCount = 0 ID = 201326603x
   0.842884 1  CF00400x        Rx   d 8 F6 8C 8C 05 1B 03 FF 8C  Length = 0 BitCount = 0 ID = 217056256x
   0.843480 1  18FEE400x       Rx   d 8 00 3F FF FC 03 7F FF FF  Length = 0 BitCount = 0 ID = 419357696x
   0.845284 1  14FF3131x       Rx   d 8 00 30 03 00 00 FF FF F0  Length = 0 BitCount = 0 ID = 352268593x
   0.845856 1  CF00203x        Rx   d 8 DD 60 02 FF F0 00 1B FF  Length = 0 BitCount = 0 ID = 217055747x
   0.846460 1  C000003x        Rx   d 8 C3 80 1B FA FF FF FF FF  Length = 0 BitCount = 0 ID = 201326595x
   0.847780 1  18F0010Bx       Rx   d 8 C0 FF F0 FF FF 0D FF 3F  Length = 0 BitCount = 0 ID = 418382091x
   0.848336 1  10FF2121x       Rx   d 8 72 55 15 C0 FF FF FF FA  Length = 0 BitCount = 0 ID = 285155617x
   0.848896 1  18F00503x       Rx   d 8 7C DE 2B 7C 20 52 52 31  Length = 0 BitCount = 0 ID = 418383107x
   0.849118 1 J1587   b Rx    80 54 05 BE 82 0D 5B 34 5C 29 C6
   0.849469 1  18FF2221x       Rx   d 8 03 55 C0 07 01 F3 FF FF  Length = 0 BitCount = 0 ID = 419373601x
   0.850045 1  18FE4A03x       Rx   d 8 FF FF FF FF FF F3 FF FF  Length = 0 BitCount = 0 ID = 419318275x
   0.850657 1  18FED9EFx       Rx   d 8 00 FF FF FF FF FF FF FF  Length = 0 BitCount = 0 ID = 419355119x
   0.852425 1  CF00400x        Rx   d 8 F6 8C 8C 05 1B 03 FF 8C  Length = 0 BitCount = 0 ID = 217056256x
   0.853001 1  18FEF100x       Rx   d 8 C3 38 04 C0 00 00 00 30  Length = 0 BitCount = 0 ID = 419361024x
   0.855813 1  CF00203x        Rx   d 8 DD 60 02 FF F0 08 1B FF  Length = 0 BitCount = 0 ID = 217055747x
   0.856417 1  C000003x        Rx   d 8 C3 80 1B FA FF FF FF FF  Length = 0 BitCount = 0 ID = 201326595x
   0.858697 1  18FEBF0Bx       Rx   d 8 5C 04 7F 7A 7E 79 FF FF  Length = 0 BitCount = 0 ID = 419348235x
   0.859297 1  14FEF131x       Rx   d 8 CF FF FF F3 00 FF FF 3F  Length = 0 BitCount = 0 ID = 352252209x
   0.859803 1 J1587   6 Rx    F9 41 F3 46 00 8D
   0.862089 1  CF00400x        Rx   d 8 F6 8C 8C 1C 1B 03 FF 8C  Length = 0 BitCount = 0 ID = 217056256x
   0.862669 1  CF00300x        Rx   d 8 DC 34 14 FF FF FF B9 FF  Length = 0 BitCount = 0 ID = 217056000x
   0.865653 1  CF00203x        Rx   d 8 DD 68 02 FF F0 18 1B FF  Length = 0 BitCount = 0 ID = 217055747x
   0.866273 1  C000003x        Rx   d 8 C3 80 1B FA FF FF FF FF  Length = 0 BitCount = 0 ID = 201326595x
   0.869329 1  14FEF121x       Rx   d 8 F3 FF FF CF FF FF FF FF  Length = 0 BitCount = 0 ID = 352252193x
   0.872357 1  CF00400x        Rx   d 8 F6 8C 8C 21 1B 03 FF 8C  Length = 0 BitCount = 0 ID = 217056256x
   0.872949 1  18FEDF00x       Rx   d 8 84 00 13 FF 7E FF FF FF  Length = 0 BitCount = 0 ID = 419356416x
   0.873537 1  18F0000Fx       Rx   d 8 06 7D FF FF 03 FF FF FF  Length = 0 BitCount = 0 ID = 418381839x
   0.875682 1  C000F03x        Rx   d 8 C2 FF FF 7D FF FF FF FF  Length = 0 BitCount = 0 ID = 201330435x
   0.876270 1  CF00203x        Rx   d 8 DD 68 02 FF F0 20 1B FF  Length = 0 BitCount = 0 ID = 217055747x
   0.876874 1  C000003x        Rx   d 8 C3 80 1B FA FF FF FF FF  Length = 0 BitCount = 0 ID = 201326595x
   0.879274 1  14F00131x       Rx   d 8 FF FF FF FF 00 FF FF FF  Length = 0 BitCount = 0 ID = 351273265x
   0.882390 1  CF00400x        Rx   d 8 F6 8C 8C 21 1B 03 FF 8C  Length = 0 BitCount = 0 ID = 217056256x
   0.882970 1  18FEF200x       Rx   d 8 64 00 6C 01 36 05 FF FF  Length = 0 BitCount = 0 ID = 419361280x
   0.885626 1  CF00203x        Rx   d 8 DD 68 02 FF F0 10 1B FF  Length = 0 BitCount = 0 ID = 217055747x
   0.886234 1  C000003x        Rx   d 8 C3 80 1B FA FF FF FF FF  Length = 0 BitCount = 0 ID = 201326595x
   0.889346 1  14F00031x       Rx   d 8 CF FF FF FF FF FF FF FF  Length = 0 BitCount = 0 ID = 351273009x
   0.892286 1  CF00400x        Rx   d 8 F6 8C 8C 1D 1B 03 FF 8C  Length = 0 BitCount = 0 ID = 217056256x
   0.895586 1  CF00203x        Rx   d 8 DD 68 02 FF F0 28 1B FF  Length = 0 BitCount = 0 ID = 217055747x
   0.896045 1 J1587   f Rx    88 31 00 97 00 C0 54 05 A8 17 01 D1 01 FC 09
   0.896198 1  C000003x        Rx   d 8 C3 80 1B FA FF FF FF FF  Length = 0 BitCount = 0 ID = 201326595x
   0.897622 1  10FF2121x       Rx   d 8 72 55 15 C0 FF FF FF FA  Length = 0 BitCount = 0 ID = 285155617x
   0.902218 1  CF00400x        Rx   d 8 F6 8C 8C 20 1B 03 FF 8C  Length = 0 BitCount = 0 ID = 217056256x
   0.902818 1  10FE6F00x       Rx   d 8 FF FF FF FF FF FF FF FF  Length = 0 BitCount = 0 ID = 285110016x
   0.903410 1  18FEF000x       Rx   d 8 FF FF FF 00 00 F4 00 FF  Length = 0 BitCount = 0 ID = 419360768x
   0.905518 1  CF00203x        Rx   d 8 DD 68 02 FF F0 10 1B FF  Length = 0 BitCount = 0 ID = 217055747x
   0.905606 1 J1587   5 Rx    82 BF 34 01 8A
   0.906122 1  C000003x        Rx   d 8 C3 80 1B FA FF FF FF FF  Length = 0 BitCount = 0 ID = 201326595x
   0.907738 1  14FF2321x       Rx   d 8 F0 0C FF FF FF FF FF FF  Length = 0 BitCount = 0 ID = 352264993x
   0.908706 1  18FEBF0Bx       Rx   d 8 64 04 7F 7A 7D 79 FF FF  Length = 0 BitCount = 0 ID = 419348235x
   0.912378 1  CF00400x        Rx   d 8 F6 8C 8C 25 1B 03 FF 8C  Length = 0 BitCount = 0 ID = 217056256x
   0.912958 1  CF00300x        Rx   d 8 DC 34 14 FF FF FF B9 FF  Length = 0 BitCount = 0 ID = 217056000x
   0.913538 1  18FEE000x       Rx   d 8 17 05 7B 00 17 05 7B 00  Length = 0 BitCount = 0 ID = 419356672x
   0.915586 1  CF00203x        Rx   d 8 DD 68 02 FF F0 20 1B FF  Length = 0 BitCount = 0 ID = 217055747x
   0.916206 1  C000003x        Rx   d 8 C3 80 1B FA FF FF FF FF  Length = 0 BitCount = 0 ID = 201326595x
   0.922242 1  CF00400x        Rx   d 8 F6 8C 8C 25 1B 03 FF 8C  Length = 0 BitCount = 0 ID = 217056256x
   0.922842 1  18FEDD00x       Rx   d 8 FF FF FF FF FF FF FF FF  Length = 0 BitCount = 0 ID = 419355904x
   0.925494 1  C000F03x        Rx   d 8 C2 FF FF 7D FF FF FF FF  Length = 0 BitCount = 0 ID = 201330435x
   0.926082 1  CF00203x        Rx   d 8 DD 68 02 FF F0 20 1B FF  Length = 0 BitCount = 0 ID = 217055747x
   0.926687 1  C000003x        Rx   d 8 C3 80 1B FA FF FF FF FF  Length = 0 BitCount = 0 ID = 201326595x
   0.932422 1  CF00400x        Rx   d 8 F6 8C 8C 24 1B 03 FF 8C  Length = 0 BitCount = 0 ID = 217056256x
   0.935506 1  CF00203x        Rx   d 8 DD 68 02 FF F0 20 1B FF  Length = 0 BitCount = 0 ID = 217055747x
   0.936126 1  C000003x        Rx   d 8 C3 80 1B FA FF FF FF FF  Length = 0 BitCount = 0 ID = 201326595x
   0.942226 1  CF00400x        Rx   d 8 F6 8C 8C 20 1B 03 FF 8C  Length = 0 BitCount = 0 ID = 217056256x
   0.942806 1  C00000Bx        Rx   d 8 FC FF FA FA FF FF FF FF  Length = 0 BitCount = 0 ID = 201326603x
   0.943395 1  18FE5600x       Rx   d 8 FF FF FF FF FF FF FF FF  Length = 0 BitCount = 0 ID = 419321344x
   0.945291 1  14FF3131x       Rx   d 8 00 30 03 00 00 FF FF F0  Length = 0 BitCount = 0 ID = 352268593x
   0.945851 1  CF00203x        Rx   d 8 DD 68 02 FF F0 20 1B FF  Length = 0 BitCount = 0 ID = 217055747x
   0.946459 1  C000003x        Rx   d 8 C3 80 1B FA FF FF FF FF  Length = 0 BitCount = 0 ID = 201326595x
   0.947687 1  10FF2121x       Rx   d 8 72 55 15 C0 FF FF FF FA  Length = 0 BitCount = 0 ID = 285155617x
   0.948251 1  18F0010Bx       Rx   d 8 C0 FF F0 FF FF 0D FF 3F  Length = 0 BitCount = 0 ID = 418382091x
   0.949951 1  18F00503x       Rx   d 8 7C DE 2B 7C 20 52 52 31  Length = 0 BitCount = 0 ID = 418383107x
   0.950555 1  18FE4A03x       Rx   d 8 FF FF FF FF FF F3 FF FF  Length = 0 BitCount = 0 ID = 419318275x
   0.951167 1  18FED9EFx       Rx   d 8 00 FF FF FF FF FF FF FF  Length = 0 BitCount = 0 ID = 419355119x
   0.951410 1 J1587   d Rx    80 54 05 BE 92 0D 28 C3 5B 34 5C 29 CB
   0.952375 1  CF00400x        Rx   d 8 F6 8C 8C 25 1B 03 FF 8C  Length = 0 BitCount = 0 ID = 217056256x
   0.952955 1  18FEF100x       Rx   d 8 C3 46 04 C0 00 00 00 30  Length = 0 BitCount = 0 ID = 419361024x
   0.953532 1  C000F0Bx        Rx   d 8 FC FF FA 00 FF FF FF FF  Length = 0 BitCount = 0 ID = 201330443x
   0.955704 1  CF00203x        Rx   d 8 DD 68 02 FF F0 18 1B FF  Length = 0 BitCount = 0 ID = 217055747x
   0.956324 1  C000003x        Rx   d 8 C3 80 1B FA FF FF FF FF  Length = 0 BitCount = 0 ID = 201326595x
   0.958716 1  18FEBF0Bx       Rx   d 8 6F 04 7F 7A 7D 78 FF FF  Length = 0 BitCount = 0 ID = 419348235x
   0.959280 1  14FEF131x       Rx   d 8 CF FF FF F3 00 FF FF 3F  Length = 0 BitCount = 0 ID = 352252209x
   0.962000 1  CF00400x        Rx   d 8 F6 8C 8C 2E 1B 03 FF 8C  Length = 0 BitCount = 0 ID = 217056256x
   0.962580 1  CF00300x        Rx   d 8 DC 34 14 FF FF FF B9 FF  Length = 0 BitCount = 0 ID = 217056000x
   0.965564 1  CF00203x        Rx   d 8 DD 68 02 FF F0 38 1B FF  Length = 0 BitCount = 0 ID = 217055747x
   0.966184 1  C000003x        Rx   d 8 C3 80 1B FA FF FF FF FF  Length = 0 BitCount = 0 ID = 201326595x
   0.969296 1  14FEF121x       Rx   d 8 F3 FF FF CF FF FF FF FF  Length = 0 BitCount = 0 ID = 352252193x
   0.969825 1 J1587   6 Rx    F9 41 F3 46 00 8D
   0.969872 1  C00100Bx        Rx   d 8 FC FF FA 00 FF FF FF FF  Length = 0 BitCount = 0 ID = 201330699x
   0.970444 1  18FF1919x       Rx   d 8 01 43 00 04 FF FF FF FF  Length = 0 BitCount = 0 ID = 419371289x
   0.972140 1  CF00400x        Rx   d 8 F6 8C 8C 33 1B 03 FF 8C  Length = 0 BitCount = 0 ID = 217056256x
   0.972732 1  18FEDF00x       Rx   d 8 84 00 13 FF 7E FF FF FF  Length = 0 BitCount = 0 ID = 419356416x
   0.973320 1  18F0000Fx       Rx   d 8 06 7D FF FF 03 FF FF FF  Length = 0 BitCount = 0 ID = 418381839x
   0.975204 1  18FF1B19x       Rx   d 8 FF FD FF FF FF FF FF FF  Length = 0 BitCount = 0 ID = 419371801x
   0.975780 1  C000F03x        Rx   d 8 C2 FF FF 7D FF FF FF FF  Length = 0 BitCount = 0 ID = 201330435x
   0.976372 1  CF00203x        Rx   d 8 DD 68 02 FF F0 28 1B FF  Length = 0 BitCount = 0 ID = 217055747x
   0.976976 1  C000003x        Rx   d 8 C3 80 1B FA FF FF FF FF  Length = 0 BitCount = 0 ID = 201326595x
   0.979240 1  14F00131x       Rx   d 8 FF FF FF FF 00 FF FF FF  Length = 0 BitCount = 0 ID = 351273265x
   0.980596 1  C00290Bx        Rx   d 8 FC FF FA 00 FF FF FF FF  Length = 0 BitCount = 0 ID = 201337099x
   0.982436 1  CF00400x        Rx   d 8 F6 8C 8C 3C 1B 03 FF 8C  Length = 0 BitCount = 0 ID = 217056256x
   0.983016 1  18FEF200x       Rx   d 8 64 00 6C 01 36 05 FF FF  Length = 0 BitCount = 0 ID = 419361280x
   0.985524 1  CF00203x        Rx   d 8 DD 68 02 FF F0 30 1B FF  Length = 0 BitCount = 0 ID = 217055747x
   0.986144 1  C000003x        Rx   d 8 C3 80 1B FA FF FF FF FF  Length = 0 BitCount = 0 ID = 201326595x
   0.989276 1  14F00031x       Rx   d 8 CF FF FF FF FF FF FF FF  Length = 0 BitCount = 0 ID = 351273009x
   0.992420 1  CF00400x        Rx   d 8 F6 8C 8C 41 1B 03 FF 8C  Length = 0 BitCount = 0 ID = 217056256x
   0.995489 1  CF00203x        Rx   d 8 DD 68 02 FF F0 30 1B FF  Length = 0 BitCount = 0 ID = 217055747x
   0.996105 1  C000003x        Rx   d 8 C3 80 1B FA FF FF FF FF  Length = 0 BitCount = 0 ID = 201326595x
   0.997621 1  10FF2121x       Rx   d 8 72 55 15 C0 FF FF FF FA  Length = 0 BitCount = 0 ID = 285155617x
   1.002205 1  CF00400x        Rx   d 8 F6 8C 8C 4C 1B 03 FF 8C  Length = 0 BitCount = 0 ID = 217056256x
   1.002805 1  10FE6F00x       Rx   d 8 FF FF FF FF FF FF FF FF  Length = 0 BitCount = 0 ID = 285110016x
   1.003397 1  18FEF000x       Rx   d 8 FF FF FF 00 00 F4 00 FF  Length = 0 BitCount = 0 ID = 419360768x
   1.005425 1  CF00203x        Rx   d 8 DD 68 02 FF F0 58 1B FF  Length = 0 BitCount = 0 ID = 217055747x
   1.006045 1  C000003x        Rx   d 8 C3 80 1B FA FF FF FF FF  Length = 0 BitCount = 0 ID = 201326595x
   1.006677 1 J1587  12 Rx    80 55 00 79 00 B7 55 00 B8 AC 01 F5 04 28 83 5F 00 3E
   1.007717 1  14FF2321x       Rx   d 8 F0 0C FF FF FF FF FF FF  Length = 0 BitCount = 0 ID = 352264993x
   1.008733 1  18FEBF0Bx       Rx   d 8 72 04 7F 7A 7C 78 FF FF  Length = 0 BitCount = 0 ID = 419348235x
   1.012297 1  CF00400x        Rx   d 8 F6 8C 8C 4C 1B 03 FF 8C  Length = 0 BitCount = 0 ID = 217056256x
   1.012877 1  CF00300x        Rx   d 8 DC 34 14 FF FF FF B9 FF  Length = 0 BitCount = 0 ID = 217056000x
   1.013457 1  18FEE000x       Rx   d 8 17 05 7B 00 17 05 7B 00  Length = 0 BitCount = 0 ID = 419356672x
   1.015493 1  CF00203x        Rx   d 8 DD 68 02 FF F0 58 1B FF  Length = 0 BitCount = 0 ID = 217055747x
   1.016097 1  C000003x        Rx   d 8 C3 80 1B FA FF FF FF FF  Length = 0 BitCount = 0 ID = 201326595x
   1.022285 1  CF00400x        Rx   d 8 F6 8C 8C 5C 1B 03 FF 8C  Length = 0 BitCount = 0 ID = 217056256x
   1.022873 1  18FDB300x       Rx   d 8 FF FF C0 36 FF FF FF FF  Length = 0 BitCount = 0 ID = 419279616x
   1.025397 1  C000F03x        Rx   d 8 C2 FF FF 7D FF FF FF FF  Length = 0 BitCount = 0 ID = 201330435x
   1.025505 1 J1587   e Rx    82 E2 07 90 28 02 12 20 52 31 BF 35 01 31
   1.025985 1  CF00203x        Rx   d 8 DD 68 02 FF F0 50 1B FF  Length = 0 BitCount = 0 ID = 217055747x
   1.026589 1  C000003x        Rx   d 8 C3 80 1B FA FF FF FF FF  Length = 0 BitCount = 0 ID = 201326595x
   1.032513 1  CF00400x        Rx   d 8 F6 8C 8C 57 1B 03 FF 8C  Length = 0 BitCount = 0 ID = 217056256x
   1.033105 1  18FEEF00x       Rx   d 8 0D FF FF 47 FF FF FF FA  Length = 0 BitCount = 0 ID = 419360512x
   1.035417 1  CF00203x        Rx   d 8 DD 68 02 FF F0 58 1B FF  Length = 0 BitCount = 0 ID = 217055747x
   1.036037 1  C000003x        Rx   d 8 C3 80 1B FA FF FF FF FF  Length = 0 BitCount = 0 ID = 201326595x
   1.042221 1  CF00400x        Rx   d 8 F6 8C 8C 57 1B 03 FF 8C  Length = 0 BitCount = 0 ID = 217056256x
   1.042801 1  C00000Bx        Rx   d 8 FC FF FA FA FF FF FF FF  Length = 0 BitCount = 0 ID = 201326603x
   1.043390 1  18FEDB00x       Rx   d 8 FF FF FF FF FF FF FF FF  Length = 0 BitCount = 0 ID = 419355392x
   1.045290 1  14FF3131x       Rx   d 8 00 30 03 00 00 FF FF F0  Length = 0 BitCount = 0 ID = 352268593x
   1.045850 1  CF00203x        Rx   d 8 DD 68 02 FF F0 50 1B FF  Length = 0 BitCount = 0 ID = 217055747x
   1.046454 1  C000003x        Rx   d 8 C3 80 1B FA FF FF FF FF  Length = 0 BitCount = 0 ID = 201326595x
   1.047706 1  10FF2121x       Rx   d 8 72 55 15 C0 FF FF FF FA  Length = 0 BitCount = 0 ID = 285155617x
   1.048270 1  18F0010Bx       Rx   d 8 C0 FF F0 FF FF 0D FF 3F  Length = 0 BitCount = 0 ID = 418382091x
   1.048868 CAN 1 Status:chip status error active
   1.049364 1 J1587   b Rx    80 54 05 BE AB 0D 5B 34 5C 29 9D
   1.049946 1  18F00503x       Rx   d 8 7C DE 2B 7C 20 52 52 31  Length = 0 BitCount = 0 ID = 418383107x
   1.050550 1  18FE4A03x       Rx   d 8 FF FF FF FF FF F3 FF FF  Length = 0 BitCount = 0 ID = 419318275x
   1.051162 1  18FED9EFx       Rx   d 8 00 FF FF FF FF FF FF FF  Length = 0 BitCount = 0 ID = 419355119x
   1.052390 1  CF00400x        Rx   d 8 F6 8C 8C 5D 1B 03 FF 8C  Length = 0 BitCount = 0 ID = 217056256x
   1.052970 1  18FEF100x       Rx   d 8 C3 46 04 C0 00 00 00 30  Length = 0 BitCount = 0 ID = 419361024x
   1.055614 1  CF00203x        Rx   d 8 DD 68 02 FF F0 58 1B FF  Length = 0 BitCount = 0 ID = 217055747x
   1.056234 1  C000003x        Rx   d 8 C3 80 1B FA FF FF FF FF  Length = 0 BitCount = 0 ID = 201326595x
   1.058730 1  18FEBF0Bx       Rx   d 8 72 04 7F 7A 7D 78 FF FF  Length = 0 BitCount = 0 ID = 419348235x
   1.059294 1  14FEF131x       Rx   d 8 CF FF FF F3 00 FF FF 3F  Length = 0 BitCount = 0 ID = 352252209x
   1.061990 1  CF00400x        Rx   d 8 F6 8C 8C 61 1B 03 FF 8C  Length = 0 BitCount = 0 ID = 217056256x
   1.062570 1  CF00300x        Rx   d 8 DC 34 14 FF FF FF B9 FF  Length = 0 BitCount = 0 ID = 217056000x
   1.065470 1  CF00203x        Rx   d 8 DD 68 02 FF F0 50 1B FF  Length = 0 BitCount = 0 ID = 217055747x
   1.066090 1  C000003x        Rx   d 8 C3 80 1B FA FF FF FF FF  Length = 0 BitCount = 0 ID = 201326595x
   1.069279 1  14FEF121x       Rx   d 8 F3 FF FF CF FF FF FF FF  Length = 0 BitCount = 0 ID = 352252193x
   1.072055 1  CF00400x        Rx   d 8 F6 8C 8C 64 1B 03 FF 8C  Length = 0 BitCount = 0 ID = 217056256x
   1.072647 1  18FEDF00x       Rx   d 8 84 00 13 FF 7E FF FF FF  Length = 0 BitCount = 0 ID = 419356416x
   1.073235 1  18F0000Fx       Rx   d 8 06 7D FF FF 03 FF FF FF  Length = 0 BitCount = 0 ID = 418381839x
   1.075503 1  C000F03x        Rx   d 8 C2 FF FF 7D FF FF FF FF  Length = 0 BitCount = 0 ID = 201330435x
   1.076095 1  CF00203x        Rx   d 8 DD 68 02 FF F0 68 1B FF  Length = 0 BitCount = 0 ID = 217055747x
   1.076699 1  C000003x        Rx   d 8 C3 80 1B FA FF FF FF FF  Length = 0 BitCount = 0 ID = 201326595x
   1.079319 1  14F00131x       Rx   d 8 FF FF FF FF 00 FF FF FF  Length = 0 BitCount = 0 ID = 351273265x
   1.079713 1 J1587   6 Rx    F9 41 F3 46 00 8D
   1.082435 1  CF00400x        Rx   d 8 F6 8C 8C 64 1B 03 FF 8C  Length = 0 BitCount = 0 ID = 217056256x
   1.083015 1  18FEF200x       Rx   d 8 64 00 6C 01 36 05 FF FF  Length = 0 BitCount = 0 ID = 419361280x
   1.085435 1  CF00203x        Rx   d 8 DD 68 02 FF F0 60 1B FF  Length = 0 BitCount = 0 ID = 217055747x
   1.086051 1  C000003x        Rx   d 8 C3 80 1B FA FF FF FF FF  Length = 0 BitCount = 0 ID = 201326595x
   1.089287 1  14F00031x       Rx   d 8 CF FF FF FF FF FF FF FF  Length = 0 BitCount = 0 ID = 351273009x
   1.091451 1  18FECA00x       Rx   d 8 03 FF 00 00 00 00 FF FF  Length = 0 BitCount = 0 ID = 419351040x
   1.092519 1  CF00400x        Rx   d 8 F6 8C 8C 61 1B 03 FF 8C  Length = 0 BitCount = 0 ID = 217056256x
   1.095391 1  CF00203x        Rx   d 8 DD 68 02 FF F0 60 1B FF  Length = 0 BitCount = 0 ID = 217055747x
   1.096007 1  C000003x        Rx   d 8 C3 80 1B FA FF FF FF FF  Length = 0 BitCount = 0 ID = 201326595x
   1.097543 1  10FF2121x       Rx   d 8 72 55 15 C0 FF FF FF FA  Length = 0 BitCount = 0 ID = 285155617x
   1.099259 1  18FF3331x       Rx   d 8 FF FF FF FF FF FF 03 FF  Length = 0 BitCount = 0 ID = 419377969x
   1.102179 1  CF00400x        Rx   d 8 F6 8C 8C 61 1B 03 FF 8C  Length = 0 BitCount = 0 ID = 217056256x
   1.102779 1  10FE6F00x       Rx   d 8 FF FF FF FF FF FF FF FF  Length = 0 BitCount = 0 ID = 285110016x
   1.103371 1  18FEF000x       Rx   d 8 FF FF FF 00 00 F4 00 FF  Length = 0 BitCount = 0 ID = 419360768x
   1.105332 1  CF00203x        Rx   d 8 DD 68 02 FF F0 60 1B FF  Length = 0 BitCount = 0 ID = 217055747x
   1.105349 1 J1587   5 Rx    82 BF 37 01 87
   1.105936 1  C000003x        Rx   d 8 C3 80 1B FA FF FF FF FF  Length = 0 BitCount = 0 ID = 201326595x
   1.107724 1  14FF2321x       Rx   d 8 F0 0C FF FF FF FF FF FF  Length = 0 BitCount = 0 ID = 352264993x
   1.108728 1  18FEBF0Bx       Rx   d 8 6C 04 7F 7A 7D 79 FF FF  Length = 0 BitCount = 0 ID = 419348235x
   1.109332 1  18FEFC47x       Rx   d 8 FF FF FF FF FF FF FF FF  Length = 0 BitCount = 0 ID = 419363911x
   1.112288 1  CF00400x        Rx   d 8 F6 8C 8C 72 1B 03 FF 8C  Length = 0 BitCount = 0 ID = 217056256x
   1.112868 1  CF00300x        Rx   d 8 DC 34 14 FF FF FF BB FF  Length = 0 BitCount = 0 ID = 217056000x
   1.113448 1  18FEE000x       Rx   d 8 17 05 7B 00 17 05 7B 00  Length = 0 BitCount = 0 ID = 419356672x
   1.115408 1  CF00203x        Rx   d 8 DD 68 02 FF F0 68 1B FF  Length = 0 BitCount = 0 ID = 217055747x
   1.116024 1  C000003x        Rx   d 8 C3 80 1B FA FF FF FF FF  Length = 0 BitCount = 0 ID = 201326595x
   1.119300 1  18FEF847x       Rx   d 8 FF FF FF FF FF FF FF FF  Length = 0 BitCount = 0 ID = 419362887x
   1.122272 1  CF00400x        Rx   d 8 F6 8C 8C 7C 1B 03 FF 8C  Length = 0 BitCount = 0 ID = 217056256x
   1.122840 1  18FEF600x       Rx   d 8 FF 35 61 35 FF 40 2F FF  Length = 0 BitCount = 0 ID = 419362304x
   1.125312 1  C000F03x        Rx   d 8 C2 FF FF 7D FF FF FF FF  Length = 0 BitCount = 0 ID = 201330435x
   1.125900 1  CF00203x        Rx   d 8 DD 68 02 FF F0 70 1B FF  Length = 0 BitCount = 0 ID = 217055747x
   1.126504 1  C000003x        Rx   d 8 C3 80 1B FA FF FF FF FF  Length = 0 BitCount = 0 ID = 201326595x
   1.129296 1  18FEF721x       Rx   d 8 FF FF FF FF 19 01 FF FF  Length = 0 BitCount = 0 ID = 419362593x
   1.132408 1  CF00400x        Rx   d 8 F6 8C 8C 81 1B 03 FF 8C  Length = 0 BitCount = 0 ID = 217056256x
   1.133008 1  18FDD000x       Rx   d 8 FF FF FF FF 05 FF FF FF  Length = 0 BitCount = 0 ID = 419287040x
   1.135328 1  CF00203x        Rx   d 8 DD 68 02 FF F0 78 1B FF  Length = 0 BitCount = 0 ID = 217055747x
   1.135944 1  C000003x        Rx   d 8 C3 80 1B FA FF FF FF FF  Length = 0 BitCount = 0 ID = 201326595x
   1.139280 1  18FEF621x       Rx   d 8 FF FF FF FF FF FF FF FF  Length = 0 BitCount = 0 ID = 419362337x
   1.142248 1  CF00400x        Rx   d 8 F6 8C 8C 8A 1B 03 FF 8C  Length = 0 BitCount = 0 ID = 217056256x
   1.142828 1  C00000Bx        Rx   d 8 FC FF FA FA FF FF FF FF  Length = 0 BitCount = 0 ID = 201326603x
   1.143388 1  18FEC100x       Rx   d 8 43 7F 03 0C 43 7F 03 0C  Length = 0 BitCount = 0 ID = 419348736x
   1.145280 1  14FF3131x       Rx   d 8 00 30 03 00 00 FF FF F0  Length = 0 BitCount = 0 ID = 352268593x
   1.145840 1  CF00203x        Rx   d 8 DD 68 02 FF F0 90 1B FF  Length = 0 BitCount = 0 ID = 217055747x
   1.146444 1  C000003x        Rx   d 8 C3 80 1B FA FF FF FF FF  Length = 0 BitCount = 0 ID = 201326595x
   1.147684 1  10FF2121x       Rx   d 8 72 55 15 C0 FF FF FF FA  Length = 0 BitCount = 0 ID = 285155617x
   1.148248 1  18F0010Bx       Rx   d 8 C0 FF F0 FF FF 0D FF 3F  Length = 0 BitCount = 0 ID = 418382091x
   1.148828 1  18FECA03x       Rx   d 8 00 FF 00 00 00 00 FF FF  Length = 0 BitCount = 0 ID = 419351043x
   1.149404 1  18FEF521x       Rx   d 8 FF FF FF A0 25 FF FF FF  Length = 0 BitCount = 0 ID = 419362081x
   1.149964 1  18F00503x       Rx   d 8 7C DE 2B 7C 20 52 00 C0  Length = 0 BitCount = 0 ID = 418383107x
   1.150568 1  18FE4A03x       Rx   d 8 FF FF FF FF FF F3 FF FF  Length = 0 BitCount = 0 ID = 419318275x
   1.151180 1  18FED9EFx       Rx   d 8 00 FF FF FF FF FF FF FF  Length = 0 BitCount = 0 ID = 419355119x
   1.152416 1  CF00400x        Rx   d 8 F6 8C 8C 8F 1B 03 FF 8C  Length = 0 BitCount = 0 ID = 217056256x
   1.152996 1  18FEF100x       Rx   d 8 C3 46 04 C0 00 00 00 30  Length = 0 BitCount = 0 ID = 419361024x
   1.153518 1 J1587   f Rx    80 54 05 BE C0 0D 28 C3 5B 34 5C 28 2C F0 82
   1.153572 1  C000F0Bx        Rx   d 8 FC FF FA 00 FF FF FF FF  Length = 0 BitCount = 0 ID = 201330443x
   1.155552 1  CF00203x        Rx   d 8 DD 70 02 FF F0 90 1B FF  Length = 0 BitCount = 0 ID = 217055747x
   1.156156 1  C000003x        Rx   d 8 C3 80 1B FA FF FF FF FF  Length = 0 BitCount = 0 ID = 201326595x
   1.158736 1  18FEBF0Bx       Rx   d 8 64 04 7F 7A 7E 7A FF FF  Length = 0 BitCount = 0 ID = 419348235x
   1.159300 1  14FEF131x       Rx   d 8 CF FF FF F3 00 FF FF 3F  Length = 0 BitCount = 0 ID = 352252209x
   1.162036 1  CF00400x        Rx   d 8 F6 8C 8C 93 1B 03 FF 8C  Length = 0 BitCount = 0 ID = 217056256x
   1.162616 1  CF00300x        Rx   d 8 DC 34 14 FF FF FF BB FF  Length = 0 BitCount = 0 ID = 217056000x
   1.165384 1  CF00203x        Rx   d 8 DD 70 02 FF F0 98 1B FF  Length = 0 BitCount = 0 ID = 217055747x
   1.165996 1  C000003x        Rx   d 8 C3 80 1B FA FF FF FF FF  Length = 0 BitCount = 0 ID = 201326595x
   1.169281 1  14FEF121x       Rx   d 8 F3 FF FF CF FF FF FF FF  Length = 0 BitCount = 0 ID = 352252193x
   1.169857 1  C00100Bx        Rx   d 8 FC FF FA 00 FF FF FF FF  Length = 0 BitCount = 0 ID = 201330699x
   1.172065 1  CF00400x        Rx   d 8 F6 8C 8C 93 1B 03 FF 8C  Length = 0 BitCount = 0 ID = 217056256x
   1.172657 1  18FEDF00x       Rx   d 8 84 00 13 FF 7E FF FF FF  Length = 0 BitCount = 0 ID = 419356416x
   1.173245 1  18F0000Fx       Rx   d 8 06 7D FF FF 03 FF FF FF  Length = 0 BitCount = 0 ID = 418381839x
   1.175413 1  C000F03x        Rx   d 8 C2 FF FF 7D FF FF FF FF  Length = 0 BitCount = 0 ID = 201330435x
   1.176005 1  CF00203x        Rx   d 8 DD 70 02 FF F0 80 1B FF  Length = 0 BitCount = 0 ID = 217055747x
   1.176609 1  C000003x        Rx   d 8 C3 80 1B FA FF FF FF FF  Length = 0 BitCount = 0 ID = 201326595x
   1.179325 1  14F00131x       Rx   d 8 FF FF FF FF 00 FF FF FF  Length = 0 BitCount = 0 ID = 351273265x
   1.180609 1  C00290Bx        Rx   d 8 FC FF FA 00 FF FF FF FF  Length = 0 BitCount = 0 ID = 201337099x
   1.182020 1 J1587   9 Rx    8C 46 00 41 F3 A8 19 01 38
   1.182461 1  CF00400x        Rx   d 8 F6 8C 8C 96 1B 03 FF 8C  Length = 0 BitCount = 0 ID = 217056256x
   1.183041 1  18FEF200x       Rx   d 8 78 00 70 01 36 05 FF FF  Length = 0 BitCount = 0 ID = 419361280x
   1.185345 1  CF00203x        Rx   d 8 DD 70 02 FF F0 90 1B FF  Length = 0 BitCount = 0 ID = 217055747x
   1.185965 1  C000003x        Rx   d 8 C3 80 1B FA FF FF FF FF  Length = 0 BitCount = 0 ID = 201326595x
   1.189305 1  14F00031x       Rx   d 8 CF FF FF FF FF FF FF FF  Length = 0 BitCount = 0 ID = 351273009x
   1.190881 1 J1587   6 Rx    F9 41 F3 46 00 8D
   1.192497 1  CF00400x        Rx   d 8 F6 8C 8C 97 1B 03 FF 8C  Length = 0 BitCount = 0 ID = 217056256x
   1.195302 1  CF00203x        Rx   d 8 DD 70 02 FF F0 90 1B FF  Length = 0 BitCount = 0 ID = 217055747x
   1.195922 1  C000003x        Rx   d 8 C3 80 1B FA FF FF FF FF  Length = 0 BitCount = 0 ID = 201326595x
   1.197582 1  10FF2121x       Rx   d 8 72 55 15 C0 FF FF FF FA  Length = 0 BitCount = 0 ID = 285155617x
   1.199266 1  18E00031x       Rx   d 8 FF FF FF FF FF FF FF FF  Length = 0 BitCount = 0 ID = 417333297x
   1.200254 1  18FEF703x       Rx   d 8 FF 00 FF FF 19 01 13 01  Length = 0 BitCount = 0 ID = 419362563x
   1.202254 1  CF00400x        Rx   d 8 F6 8C 8C 9A 1B 03 FF 8C  Length = 0 BitCount = 0 ID = 217056256x
   1.202854 1  10FE6F00x       Rx   d 8 FF FF FF FF FF FF FF FF  Length = 0 BitCount = 0 ID = 285110016x
   1.203446 1  18FEF000x       Rx   d 8 FF FF FF 00 00 F4 00 FF  Length = 0 BitCount = 0 ID = 419360768x
   1.205270 1  CF00203x        Rx   d 8 DD 70 02 FF F0 90 1B FF  Length = 0 BitCount = 0 ID = 217055747x
   1.205890 1  C000003x        Rx   d 8 C3 80 1B FA FF FF FF FF  Length = 0 BitCount = 0 ID = 201326595x
   1.207910 1  14FF2321x       Rx   d 8 F0 0C FF FF FF FF FF FF  Length = 0 BitCount = 0 ID = 352264993x
   1.208746 1  18FEBF0Bx       Rx   d 8 5F 04 80 79 7E 7A FF FF  Length = 0 BitCount = 0 ID = 419348235x
   1.212306 1  CF00400x        Rx   d 8 F6 8C 8C 97 1B 03 FF 8C  Length = 0 BitCount = 0 ID = 217056256x
   1.212890 1  CF00300x        Rx   d 8 DC 34 13 FF FF FF BB FF  Length = 0 BitCount = 0 ID = 217056000x
   1.213381 1 J1587  14 Rx    80 55 00 79 00 B7 66 00 B8 B1 01 41 FC 44 C8 53 7F 5E 0F A3
   1.213470 1  18FEE000x       Rx   d 8 17 05 7B 00 17 05 7B 00  Length = 0 BitCount = 0 ID = 419356672x
   1.215322 1  CF00203x        Rx   d 8 DD 70 02 FF F0 98 1B FF  Length = 0 BitCount = 0 ID = 217055747x
   1.215942 1  C000003x        Rx   d 8 C3 80 1B FA FF FF FF FF  Length = 0 BitCount = 0 ID = 201326595x
   1.222250 1  CF00400x        Rx   d 8 F6 8C 8C 9D 1B 03 FF 8C  Length = 0 BitCount = 0 ID = 217056256x
   1.222842 1  18FEF700x       Rx   d 8 FF FF FF FF 19 01 18 01  Length = 0 BitCount = 0 ID = 419362560x
   1.225218 1  C000F03x        Rx   d 8 C2 FF FF 7D FF FF FF FF  Length = 0 BitCount = 0 ID = 201330435x
   1.225806 1  CF00203x        Rx   d 8 DD 70 02 FF F0 98 1B FF  Length = 0 BitCount = 0 ID = 217055747x
   1.226410 1  C000003x        Rx   d 8 C3 80 1B FA FF FF FF FF  Length = 0 BitCount = 0 ID = 201326595x
   1.231750 1 J1587   e Rx    82 BF 38 01 A8 19 01 A3 20 4E A2 20 52 9F
   1.232442 1  CF00400x        Rx   d 8 F6 8C 8C A1 1B 03 FF 8C  Length = 0 BitCount = 0 ID = 217056256x
   1.235235 1  CF00203x        Rx   d 8 DD 70 02 FF F0 B0 1B FF  Length = 0 BitCount = 0 ID = 217055747x
   1.235855 1  C000003x        Rx   d 8 C3 80 1B FA FF FF FF FF  Length = 0 BitCount = 0 ID = 201326595x
   1.242291 1  CF00400x        Rx   d 8 F6 8C 8C A5 1B 03 FF 8C  Length = 0 BitCount = 0 ID = 217056256x
   1.242871 1  C00000Bx        Rx   d 8 FC FF FA FA FF FF FF FF  Length = 0 BitCount = 0 ID = 201326603x
   1.244359 1 J1587   a Rx    89 FE AC 0F 80 CE 07 70 00 F9
   1.245215 1  CF00203x        Rx   d 8 DD 70 02 FF F0 A0 1B FF  Length = 0 BitCount = 0 ID = 217055747x
   1.245795 1  14FF3131x       Rx   d 8 00 30 03 00 00 FF FF F0  Length = 0 BitCount = 0 ID = 352268593x
   1.246371 1  C000003x        Rx   d 8 C3 80 1B FA FF FF FF FF  Length = 0 BitCount = 0 ID = 201326595x
   1.247811 1  18F0010Bx       Rx   d 8 C0 FF F0 FF FF 0D FF 3F  Length = 0 BitCount = 0 ID = 418382091x
   1.248367 1  10FF2121x       Rx   d 8 72 55 15 C0 FF FF FF FA  Length = 0 BitCount = 0 ID = 285155617x
   1.249747 1  18F00503x       Rx   d 8 7C DE 2B 7C 20 52 52 31  Length = 0 BitCount = 0 ID = 418383107x
   1.250351 1  18FE4A03x       Rx   d 8 FF FF FF FF FF F3 FF FF  Length = 0 BitCount = 0 ID = 419318275x
   1.250963 1  18FED9EFx       Rx   d 8 00 FF FF FF FF FF FF FF  Length = 0 BitCount = 0 ID = 419355119x
   1.252699 1  CF00400x        Rx   d 8 F6 8C 8C A8 1B 03 FF 8C  Length = 0 BitCount = 0 ID = 217056256x
   1.253279 1  18FEF100x       Rx   d 8 C3 54 04 C0 00 00 00 30  Length = 0 BitCount = 0 ID = 419361024x
   1.255439 1  CF00203x        Rx   d 8 DD 70 02 FF F0 A0 1B FF  Length = 0 BitCount = 0 ID = 217055747x
   1.256043 1  C000003x        Rx   d 8 C3 80 1B FA FF FF FF FF  Length = 0 BitCount = 0 ID = 201326595x
   1.258735 1  18FEBF0Bx       Rx   d 8 5F 04 80 79 7E 7A FF FF  Length = 0 BitCount = 0 ID = 419348235x
   1.259300 1  14FEF131x       Rx   d 8 CF FF FF F3 00 FF FF 3F  Length = 0 BitCount = 0 ID = 352252209x
   1.262028 1  CF00400x        Rx   d 8 F6 8C 8C A8 1B 03 FF 8C  Length = 0 BitCount = 0 ID = 217056256x
   1.262612 1  CF00300x        Rx   d 8 DC 34 13 FF FF FF BB FF  Length = 0 BitCount = 0 ID = 217056000x
   1.263288 1 J1587e15   f Rx    80 54 05 BE D0 0D 29 C0 5B 34 5C 28 2B C7 9E
   1.265288 1  CF00203x        Rx   d 8 DD 70 02 FF F0 A0 1B FF  Length = 0 BitCount = 0 ID = 217055747x
   1.265908 1  C000003x        Rx   d 8 C3 80 1B FA FF FF FF FF  Length = 0 BitCount = 0 ID = 201326595x
   1.269280 1  14FEF121x       Rx   d 8 F3 FF FF CF FF FF FF FF  Length = 0 BitCount = 0 ID = 352252193x
   1.272332 1  CF00400x        Rx   d 8 F6 8C 8C C1 1B 03 FF 8C  Length = 0 BitCount = 0 ID = 217056256x
   1.272924 1  18FEDF00x       Rx   d 8 84 00 13 FF 7E FF FF FF  Length = 0 BitCount = 0 ID = 419356416x
   1.273512 1  18F0000Fx       Rx   d 8 06 7D FF FF 03 FF FF FF  Length = 0 BitCount = 0 ID = 418381839x
   1.275320 1  C000F03x        Rx   d 8 C2 FF FF 7D FF FF FF FF  Length = 0 BitCount = 0 ID = 201330435x
   1.275912 1  CF00203x        Rx   d 8 DD 70 02 FF F0 C0 1B FF  Length = 0 BitCount = 0 ID = 217055747x
   1.276516 1  C000003x        Rx   d 8 C3 80 1B FA FF FF FF FF  Length = 0 BitCount = 0 ID = 201326595x
   1.279308 1  14F00131x       Rx   d 8 FF FF FF FF 00 FF FF FF  Length = 0 BitCount = 0 ID = 351273265x
   1.282384 1  CF00400x        Rx   d 8 F6 8C 8C C4 1B 03 FF 8C  Length = 0 BitCount = 0 ID = 217056256x
   1.282964 1  18FEF200x       Rx   d 8 78 00 70 01 36 05 FF FF  Length = 0 BitCount = 0 ID = 419361280x
   1.285256 1  CF00203x        Rx   d 8 DD 70 02 FF F0 D0 1B FF  Length = 0 BitCount = 0 ID = 217055747x
   1.285872 1  C000003x        Rx   d 8 C3 80 1B FA FF FF FF FF  Length = 0 BitCount = 0 ID = 201326595x
   1.289304 1  14F00031x       Rx   d 8 CF FF FF FF FF FF FF FF  Length = 0 BitCount = 0 ID = 351273009x
   1.292556 1  CF00400x        Rx   d 8 F6 8C 8C C1 1B 03 FF 8C  Length = 0 BitCount = 0 ID = 217056256x
   1.295212 1  CF00203x        Rx   d 8 DD 70 02 FF F0 B8 1B FF  Length = 0 BitCount = 0 ID = 217055747x
   1.295832 1  C000003x        Rx   d 8 C3 80 1B FA FF FF FF FF  Length = 0 BitCount = 0 ID = 201326595x
   1.297576 1  10FF2121x       Rx   d 8 72 55 15 C0 FF FF FF FA  Length = 0 BitCount = 0 ID = 285155617x
   1.302176 1  CF00400x        Rx   d 8 F6 8C 8C C0 1B 03 FF 8C  Length = 0 BitCount = 0 ID = 217056256x
   1.302776 1  10FE6F00x       Rx   d 8 FF FF FF FF FF FF FF FF  Length = 0 BitCount = 0 ID = 285110016x
   1.303368 1  18FEF000x       Rx   d 8 FF FF FF 00 00 F4 00 FF  Length = 0 BitCount = 0 ID = 419360768x
   1.305153 1  CF00203x        Rx   d 8 DD 70 02 FF F0 B8 1B FF  Length = 0 BitCount = 0 ID = 217055747x
   1.305773 1  C000003x        Rx   d 8 C3 80 1B FA FF FF FF FF  Length = 0 BitCount = 0 ID = 201326595x
   1.307809 1  14FF2321x       Rx   d 8 F0 0C FF FF FF FF FF FF  Length = 0 BitCount = 0 ID = 352264993x
   1.308753 1  18FEBF0Bx       Rx   d 8 57 04 80 79 7F 7A FF FF  Length = 0 BitCount = 0 ID = 419348235x
   1.309008 1 J1587  14 Rx    80 64 53 66 09 6E AE AE 29 02 AF A3 02 46 7F 47 00 59 00 AC
   1.312273 1  CF00400x        Rx   d 8 F6 8C 8C C0 1B 03 FF 8C  Length = 0 BitCount = 0 ID = 217056256x
   1.312857 1  CF00300x        Rx   d 8 DC 34 13 FF FF FF BB FF  Length = 0 BitCount = 0 ID = 217056000x
   1.313212 1 J1587e22   1 Rx    00
   1.313437 1  18FEE000x       Rx   d 8 17 05 7B 00 17 05 7B 00  Length = 0 BitCount = 0 ID = 419356672x
   1.314647 1 J1587e257   1 Rx    02
   1.315225 1  CF00203x        Rx   d 8 DD 70 02 FF F0 B8 1B FF  Length = 0 BitCount = 0 ID = 217055747x
   1.315845 1  C000003x        Rx   d 8 C3 80 1B FA FF FF FF FF  Length = 0 BitCount = 0 ID = 201326595x
   1.322377 1  CF00400x        Rx   d 8 F6 8C 8C C5 1B 03 FF 8C  Length = 0 BitCount = 0 ID = 217056256x
   1.322849 1 J1587   5 Rx    82 BF 3A 01 84
   1.325133 1  C000F03x        Rx   d 8 C2 FF FF 7D FF FF FF FF  Length = 0 BitCount = 0 ID = 201330435x
   1.325721 1  CF00203x        Rx   d 8 DD 70 02 FF F0 C8 1B FF  Length = 0 BitCount = 0 ID = 217055747x
   1.326325 1  C000003x        Rx   d 8 C3 80 1B FA FF FF FF FF  Length = 0 BitCount = 0 ID = 201326595x
   1.326832 1 J1587e257   1 Rx    00
   1.332160 1 J1587e22   2 Rx    80 FE
   1.332405 1  CF00400x        Rx   d 8 F6 8C 8C C5 1B 03 FF 8C  Length = 0 BitCount = 0 ID = 217056256x
   1.335145 1  CF00203x        Rx   d 8 DD 70 02 FF F0 B8 1B FF  Length = 0 BitCount = 0 ID = 217055747x
   1.335749 1  C000003x        Rx   d 8 C3 80 1B FA FF FF FF FF  Length = 0 BitCount = 0 ID = 201326595x
   1.337581 1  18FF2421x       Rx   d 8 9D F5 FF FF FF FF FF FF  Length = 0 BitCount = 0 ID = 419374113x
   1.338465 1 J1587   6 Rx    F9 41 F3 46 00 8D
   1.342297 1  CF00400x        Rx   d 8 F6 8C 8C BD 1B 03 FF 8C  Length = 0 BitCount = 0 ID = 217056256x
   1.342877 1  C00000Bx        Rx   d 8 FC FF FA FA FF FF FF FF  Length = 0 BitCount = 0 ID = 201326603x
   1.345122 1  CF00203x        Rx   d 8 DD 70 02 FF F0 B0 1B FF  Length = 0 BitCount = 0 ID = 217055747x
   1.345702 1  14FF3131x       Rx   d 8 00 30 03 00 00 FF FF F0  Length = 0 BitCount = 0 ID = 352268593x
   1.346278 1  C000003x        Rx   d 8 C3 80 1B FA FF FF FF FF  Length = 0 BitCount = 0 ID = 201326595x
   1.347754 1  10FF2121x       Rx   d 8 72 55 15 C0 FF FF FF FA  Length = 0 BitCount = 0 ID = 285155617x
   1.348318 1  18F0010Bx       Rx   d 8 C0 FF F0 FF FF 0D FF 3F  Length = 0 BitCount = 0 ID = 418382091x
   1.349622 1  18F00503x       Rx   d 8 7C DE 2B 7C 20 52 52 31  Length = 0 BitCount = 0 ID = 418383107x
   1.350226 1  18FE4A03x       Rx   d 8 FF FF FF FF FF F3 FF FF  Length = 0 BitCount = 0 ID = 419318275x
   1.350838 1  18FED9EFx       Rx   d 8 00 FF FF FF FF FF FF FF  Length = 0 BitCount = 0 ID = 419355119x
   1.352758 1  CF00400x        Rx   d 8 F6 8C 8C B7 1B 03 FF 8C  Length = 0 BitCount = 0 ID = 217056256x
   1.353334 1  C000F0Bx        Rx   d 8 FC FF FA 00 FF FF FF FF  Length = 0 BitCount = 0 ID = 201330443x
   1.353902 1  18FEF100x       Rx   d 8 C3 54 04 C0 00 00 00 30  Length = 0 BitCount = 0 ID = 419361024x
   1.354799 1 J1587   d Rx    80 54 05 BE E2 0D 28 C3 5B 34 5C 28 7C
   1.355342 1  CF00203x        Rx   d 8 DD 70 02 FF F0 B8 1B FF  Length = 0 BitCount = 0 ID = 217055747x
   1.355946 1  C000003x        Rx   d 8 C3 80 1B FA FF FF FF FF  Length = 0 BitCount = 0 ID = 201326595x
   1.358762 1  18FEBF0Bx       Rx   d 8 59 04 80 79 7E 7A FF FF  Length = 0 BitCount = 0 ID = 419348235x
   1.359326 1  14FEF131x       Rx   d 8 CF FF FF F3 00 FF FF 3F  Length = 0 BitCount = 0 ID = 352252209x
   1.362018 1  CF00400x        Rx   d 8 F6 8C 8C BC 1B 03 FF 8C  Length = 0 BitCount = 0 ID = 217056256x
   1.362195 1 J1587   6 Rx    80 CB 02 24 05 8A
   1.362602 1  CF00300x        Rx   d 8 DC 34 13 FF FF FF BB FF  Length = 0 BitCount = 0 ID = 217056000x
   1.365203 1  CF00203x        Rx   d 8 DD 70 02 FF F0 B8 1B FF  Length = 0 BitCount = 0 ID = 217055747x
   1.365819 1  C000003x        Rx   d 8 C3 80 1B FA FF FF FF FF  Length = 0 BitCount = 0 ID = 201326595x
   1.369271 1  14FEF121x       Rx   d 8 F3 FF FF CF FF FF FF FF  Length = 0 BitCount = 0 ID = 352252193x
   1.369847 1  C00100Bx        Rx   d 8 FC FF FA 00 FF FF FF FF  Length = 0 BitCount = 0 ID = 201330699x
   1.372051 1  CF00400x        Rx   d 8 F6 8C 8C C1 1B 03 FF 8C  Length = 0 BitCount = 0 ID = 217056256x
   1.372643 1  18FEDF00x       Rx   d 8 84 00 13 FF 7E FF FF FF  Length = 0 BitCount = 0 ID = 419356416x
   1.373231 1  18F0000Fx       Rx   d 8 06 7D FF FF 03 FF FF FF  Length = 0 BitCount = 0 ID = 418381839x
   1.375231 1  C000F03x        Rx   d 8 C2 FF FF 7D FF FF FF FF  Length = 0 BitCount = 0 ID = 201330435x
   1.375819 1  CF00203x        Rx   d 8 DD 70 02 FF F0 D0 1B FF  Length = 0 BitCount = 0 ID = 217055747x
   1.376423 1  C000003x        Rx   d 8 C3 80 1B FA FF FF FF FF  Length = 0 BitCount = 0 ID = 201326595x
   1.379271 1  14F00131x       Rx   d 8 FF FF FF FF 00 FF FF FF  Length = 0 BitCount = 0 ID = 351273265x
   1.380635 1  C00290Bx        Rx   d 8 FC FF FA 00 FF FF FF FF  Length = 0 BitCount = 0 ID = 201337099x
   1.382783 1  CF00400x        Rx   d 8 F6 8C 8C C5 1B 03 FF 8C  Length = 0 BitCount = 0 ID = 217056256x
   1.383359 1  18FEF200x       Rx   d 8 78 00 6E 01 36 05 FF FF  Length = 0 BitCount = 0 ID = 419361280x
   1.385167 1  CF00203x        Rx   d 8 DD 70 02 FF F0 B8 1B FF  Length = 0 BitCount = 0 ID = 217055747x
   1.385771 1  C000003x        Rx   d 8 C3 80 1B FA FF FF FF FF  Length = 0 BitCount = 0 ID = 201326595x
   1.389291 1  14F00031x       Rx   d 8 CF FF FF FF FF FF FF FF  Length = 0 BitCount = 0 ID = 351273009x
   1.392451 1  CF00400x        Rx   d 8 F6 8C 8C C5 1B 03 FF 8C  Length = 0 BitCount = 0 ID = 217056256x
   1.394652 1 J1587   f Rx    88 31 00 97 00 C0 54 05 A8 16 01 D1 01 FC 0A
   1.395123 1  CF00203x        Rx   d 8 DD 70 02 FF F0 B8 1B FF  Length = 0 BitCount = 0 ID = 217055747x
   1.395739 1  C000003x        Rx   d 8 C3 80 1B FA FF FF FF FF  Length = 0 BitCount = 0 ID = 201326595x
   1.397763 1  10FF2121x       Rx   d 8 72 55 15 C0 FF FF FF FA  Length = 0 BitCount = 0 ID = 285155617x
   1.402295 1  CF00400x        Rx   d 8 F6 8C 8C CC 1B 03 FF 8C  Length = 0 BitCount = 0 ID = 217056256x
   1.402895 1  10FE6F00x       Rx   d 8 FF FF FF FF FF FF FF FF  Length = 0 BitCount = 0 ID = 285110016x
   1.403487 1  18FEF000x       Rx   d 8 FF FF FF 00 00 F4 00 FF  Length = 0 BitCount = 0 ID = 419360768x
   1.405067 1  CF00203x        Rx   d 8 DD 70 02 FF F0 B8 1B FF  Length = 0 BitCount = 0 ID = 217055747x
   1.405683 1  C000003x        Rx   d 8 C3 80 1B FA FF FF FF FF  Length = 0 BitCount = 0 ID = 201326595x
   1.407787 1  14FF2321x       Rx   d 8 F0 0C FF FF FF FF FF FF  Length = 0 BitCount = 0 ID = 352264993x
   1.408759 1  18FEBF0Bx       Rx   d 8 64 04 7F 7A 7E 79 FF FF  Length = 0 BitCount = 0 ID = 419348235x
   1.412555 1  CF00400x        Rx   d 8 F6 8C 8C D6 1B 03 FF 8C  Length = 0 BitCount = 0 ID = 217056256x
   1.413143 1  CF00300x        Rx   d 8 DC 34 13 FF FF FF BE FF  Length = 0 BitCount = 0 ID = 217056000x
   1.413723 1  18FEE000x       Rx   d 8 17 05 7B 00 17 05 7B 00  Length = 0 BitCount = 0 ID = 419356672x
   1.415143 1  CF00203x        Rx   d 8 DD 70 02 FF F0 E0 1B FF  Length = 0 BitCount = 0 ID = 217055747x
   1.415763 1  C000003x        Rx   d 8 C3 80 1B FA FF FF FF FF  Length = 0 BitCount = 0 ID = 201326595x
   1.416998 1 J1587  14 Rx    80 55 00 79 00 B7 66 00 B8 AE 01 5D 07 69 87 6A 3D 6C E3 E4
   1.422223 1  CF00400x        Rx   d 8 F6 8C 8C D6 1B 03 FF 8C  Length = 0 BitCount = 0 ID = 217056256x
   1.425040 1  C000F03x        Rx   d 8 C2 FF FF 7D FF FF FF FF  Length = 0 BitCount = 0 ID = 201330435x
   1.425359 1 J1587   6 Rx    F9 41 F3 46 00 8D
   1.425628 1  CF00203x        Rx   d 8 DD 70 02 FF F0 D8 1B FF  Length = 0 BitCount = 0 ID = 217055747x
   1.426232 1  C000003x        Rx   d 8 C3 80 1B FA FF FF FF FF  Length = 0 BitCount = 0 ID = 201326595x
   1.432432 1  CF00400x        Rx   d 8 F6 8C 8C DA 1B 03 FF 8C  Length = 0 BitCount = 0 ID = 217056256x
   1.435056 1  CF00203x        Rx   d 8 DD 70 02 FF F0 D0 1B FF  Length = 0 BitCount = 0 ID = 217055747x
   1.435676 1  C000003x        Rx   d 8 C3 80 1B FA FF FF FF FF  Length = 0 BitCount = 0 ID = 201326595x
   1.442388 1  C00000Bx        Rx   d 8 FC FF FA FA FF FF FF FF  Length = 0 BitCount = 0 ID = 201326603x
   1.442940 1  CF00400x        Rx   d 8 F6 8C 8C D2 1B 03 FF 8C  Length = 0 BitCount = 0 ID = 217056256x
   1.444122 1 J1587   e Rx    82 E2 07 90 28 02 12 20 52 31 BF 3B 01 2B
   1.445036 1  CF00203x        Rx   d 8 DD 70 02 FF F0 D0 1B FF  Length = 0 BitCount = 0 ID = 217055747x
   1.445616 1  14FF3131x       Rx   d 8 00 30 03 00 00 FF FF F0  Length = 0 BitCount = 0 ID = 352268593x
   1.446192 1  C000003x        Rx   d 8 C3 80 1B FA FF FF FF FF  Length = 0 BitCount = 0 ID = 201326595x
   1.447736 1  10FF2121x       Rx   d 8 72 55 15 C0 FF FF FF FA  Length = 0 BitCount = 0 ID = 285155617x
   1.448300 1  18F0010Bx       Rx   d 8 C0 FF F0 FF FF 0D FF 3F  Length = 0 BitCount = 0 ID = 418382091x
   1.448860 1  18F00503x       Rx   d 8 7C DE 2B 7C 20 52 52 31  Length = 0 BitCount = 0 ID = 418383107x
   1.449464 1  18FE4A03x       Rx   d 8 FF FF FF FF FF F3 FF FF  Length = 0 BitCount = 0 ID = 419318275x
   1.450076 1  18FED9EFx       Rx   d 8 00 FF FF FF FF FF FF FF  Length = 0 BitCount = 0 ID = 419355119x
   1.452456 1  CF00400x        Rx   d 8 F6 8C 8C D2 1B 03 FF 8C  Length = 0 BitCount = 0 ID = 217056256x
   1.453036 1  18FEF100x       Rx   d 8 C3 54 04 C0 00 00 00 30  Length = 0 BitCount = 0 ID = 419361024x
   1.455257 1  CF00203x        Rx   d 8 DD 70 02 FF F0 C8 1B FF  Length = 0 BitCount = 0 ID = 217055747x
   1.455861 1  C000003x        Rx   d 8 C3 80 1B FA FF FF FF FF  Length = 0 BitCount = 0 ID = 201326595x
   1.458339 1 J1587e15   b Rx    80 54 05 BE ED 0D 5B 34 5C 27 5D
   1.458769 1  18FEBF0Bx       Rx   d 8 62 04 7F 7A 7E 7A FF FF  Length = 0 BitCount = 0 ID = 419348235x
   1.459333 1  14FEF131x       Rx   d 8 CF FF FF F3 00 FF FF 3F  Length = 0 BitCount = 0 ID = 352252209x
   1.461989 1  CF00400x        Rx   d 8 F6 8C 8C DA 1B 03 FF 8C  Length = 0 BitCount = 0 ID = 217056256x
   1.462577 1  CF00300x        Rx   d 8 DC 34 13 FF FF FF BE FF  Length = 0 BitCount = 0 ID = 217056000x
   1.465109 1  CF00203x        Rx   d 8 DD 70 02 FF F0 D0 1B FF  Length = 0 BitCount = 0 ID = 217055747x
